time	V(vpr)	V(n001)
0.000000000000000e+00	-8.581572e-02	-8.500000e-01
5.999999999999062e-07	-8.550902e-02	1.700000e-01
9.999999999992654e-07	-8.508140e-02	8.500000e-01
1.039999999999028e-06	-8.502828e-02	8.500000e-01
6.497142857137729e-06	-7.726534e-02	8.500000e-01
1.195428571427643e-05	-6.981554e-02	8.500000e-01
1.741142857141513e-05	-6.267887e-02	8.500000e-01
2.286857142855383e-05	-5.585535e-02	8.500000e-01
2.832571428569253e-05	-4.934497e-02	8.500000e-01
3.378285714283124e-05	-4.314772e-02	8.500000e-01
3.923999999996992e-05	-3.726361e-02	8.500000e-01
4.438285714282329e-05	-3.195193e-02	8.500000e-01
4.952571428567666e-05	-2.684379e-02	8.500000e-01
5.466857142853002e-05	-2.193920e-02	8.500000e-01
5.981142857138339e-05	-1.723815e-02	8.500000e-01
6.495428571423676e-05	-1.274064e-02	8.500000e-01
7.009714285709012e-05	-8.446667e-03	8.500000e-01
7.523999999994348e-05	-4.356240e-03	8.500000e-01
7.823999999994127e-05	-2.038619e-03	8.500000e-01
8.023999999993980e-05	-5.257934e-04	8.500000e-01
8.123999999993907e-05	2.211053e-04	8.500000e-01
8.323999999993760e-05	1.696140e-03	8.500000e-01
8.623999999993540e-05	3.862567e-03	8.500000e-01
9.195428571421691e-05	7.820047e-03	8.500000e-01
9.766857142849843e-05	1.161121e-02	8.500000e-01
1.033828571427800e-04	1.523605e-02	8.500000e-01
1.090971428570615e-04	1.869458e-02	8.500000e-01
1.148114285713430e-04	2.198678e-02	8.500000e-01
1.205257142856245e-04	2.511267e-02	8.500000e-01
1.262399999999060e-04	2.807224e-02	8.500000e-01
1.366685714284698e-04	3.307364e-02	8.500000e-01
1.470971428570336e-04	3.772887e-02	8.500000e-01
1.575257142855973e-04	4.203794e-02	8.500000e-01
1.679542857141611e-04	4.600084e-02	8.500000e-01
1.783828571427249e-04	4.961757e-02	8.500000e-01
1.888114285712886e-04	5.288814e-02	8.500000e-01
1.992399999998524e-04	5.581254e-02	8.500000e-01
2.100971428569873e-04	5.861766e-02	8.500000e-01
2.209542857141222e-04	6.122244e-02	8.500000e-01
2.318114285712570e-04	6.362689e-02	8.500000e-01
2.426685714283919e-04	6.583101e-02	8.500000e-01
2.535257142855268e-04	6.783479e-02	8.500000e-01
2.643828571426617e-04	6.963824e-02	8.500000e-01
2.752399999997966e-04	7.124136e-02	8.500000e-01
2.862399999997885e-04	7.273712e-02	8.500000e-01
2.972399999997804e-04	7.412498e-02	8.500000e-01
3.082399999997723e-04	7.540492e-02	8.500000e-01
3.192399999997642e-04	7.657696e-02	8.500000e-01
3.302399999997561e-04	7.764109e-02	8.500000e-01
3.412399999997481e-04	7.859732e-02	8.500000e-01
3.522399999997400e-04	7.944563e-02	8.500000e-01
3.632399999997319e-04	8.022702e-02	8.500000e-01
3.742399999997238e-04	8.095203e-02	8.500000e-01
3.852399999997157e-04	8.162068e-02	8.500000e-01
3.962399999997077e-04	8.223295e-02	8.500000e-01
4.072399999996996e-04	8.278886e-02	8.500000e-01
4.182399999996915e-04	8.328839e-02	8.500000e-01
4.292399999996834e-04	8.373155e-02	8.500000e-01
4.373828571425346e-04	8.403956e-02	8.500000e-01
4.455257142853857e-04	8.433009e-02	8.500000e-01
4.536685714282369e-04	8.460315e-02	8.500000e-01
4.618114285710881e-04	8.485873e-02	8.500000e-01
4.699542857139392e-04	8.509683e-02	8.500000e-01
4.780971428567904e-04	8.531745e-02	8.500000e-01
4.862399999996415e-04	8.552060e-02	8.500000e-01
4.883485714282642e-04	8.557165e-02	8.500000e-01
4.904571428568867e-04	8.562183e-02	8.500000e-01
4.925657142855094e-04	8.567116e-02	8.500000e-01
4.946742857141319e-04	8.571963e-02	8.500000e-01
4.967828571427545e-04	8.576725e-02	8.500000e-01
4.988914285713771e-04	8.581401e-02	8.500000e-01
5.009999999999997e-04	8.585991e-02	8.500000e-01
5.015999999999996e-04	8.555298e-02	-1.700000e-01
5.019999999999990e-04	8.513059e-02	-8.500000e-01
5.077485714285660e-04	7.696215e-02	-8.500000e-01
5.134971428571330e-04	6.913854e-02	-8.500000e-01
5.192457142857000e-04	6.165976e-02	-8.500000e-01
5.249942857142671e-04	5.452580e-02	-8.500000e-01
5.307428571428341e-04	4.773667e-02	-8.500000e-01
5.364914285714012e-04	4.129237e-02	-8.500000e-01
5.422399999999682e-04	3.519289e-02	-8.500000e-01
5.472399999999645e-04	3.010969e-02	-8.500000e-01
5.522399999999608e-04	2.521648e-02	-8.500000e-01
5.572399999999571e-04	2.051327e-02	-8.500000e-01
5.622399999999535e-04	1.600006e-02	-8.500000e-01
5.672399999999498e-04	1.167684e-02	-8.500000e-01
5.722399999999461e-04	7.543628e-03	-8.500000e-01
5.772399999999425e-04	3.600411e-03	-8.500000e-01
5.792399999999410e-04	2.061466e-03	-8.500000e-01
5.812399999999395e-04	5.482576e-04	-8.500000e-01
5.822399999999388e-04	-1.988297e-04	-8.500000e-01
5.842399999999373e-04	-1.674236e-03	-8.500000e-01
5.872399999999351e-04	-3.841211e-03	-8.500000e-01
5.929542857142166e-04	-7.799690e-03	-8.500000e-01
5.986685714284982e-04	-1.159181e-02	-8.500000e-01
6.043828571427797e-04	-1.521757e-02	-8.500000e-01
6.100971428570612e-04	-1.867697e-02	-8.500000e-01
6.158114285713427e-04	-2.197000e-02	-8.500000e-01
6.215257142856242e-04	-2.509668e-02	-8.500000e-01
6.272399999999057e-04	-2.805700e-02	-8.500000e-01
6.376685714284695e-04	-3.305966e-02	-8.500000e-01
6.480971428570333e-04	-3.771607e-02	-8.500000e-01
6.585257142855970e-04	-4.202622e-02	-8.500000e-01
6.689542857141608e-04	-4.599012e-02	-8.500000e-01
6.793828571427246e-04	-4.960777e-02	-8.500000e-01
6.898114285712883e-04	-5.287916e-02	-8.500000e-01
7.002399999998521e-04	-5.580430e-02	-8.500000e-01
7.110971428569869e-04	-5.861013e-02	-8.500000e-01
7.219542857141219e-04	-6.121557e-02	-8.500000e-01
7.328114285712567e-04	-6.362063e-02	-8.500000e-01
7.436685714283916e-04	-6.582530e-02	-8.500000e-01
7.545257142855265e-04	-6.782959e-02	-8.500000e-01
7.653828571426614e-04	-6.963350e-02	-8.500000e-01
7.762399999997963e-04	-7.123702e-02	-8.500000e-01
7.872399999997882e-04	-7.273316e-02	-8.500000e-01
7.982399999997801e-04	-7.412136e-02	-8.500000e-01
8.092399999997720e-04	-7.540163e-02	-8.500000e-01
8.202399999997639e-04	-7.657397e-02	-8.500000e-01
8.312399999997559e-04	-7.763837e-02	-8.500000e-01
8.422399999997478e-04	-7.859483e-02	-8.500000e-01
8.532399999997397e-04	-7.944337e-02	-8.500000e-01
8.642399999997316e-04	-8.022495e-02	-8.500000e-01
8.752399999997235e-04	-8.095015e-02	-8.500000e-01
8.862399999997154e-04	-8.161896e-02	-8.500000e-01
8.972399999997074e-04	-8.223139e-02	-8.500000e-01
9.082399999996993e-04	-8.278743e-02	-8.500000e-01
9.192399999996912e-04	-8.328709e-02	-8.500000e-01
9.302399999996831e-04	-8.373036e-02	-8.500000e-01
9.383828571425343e-04	-8.403845e-02	-8.500000e-01
9.465257142853854e-04	-8.432906e-02	-8.500000e-01
9.546685714282366e-04	-8.460218e-02	-8.500000e-01
9.628114285710877e-04	-8.485783e-02	-8.500000e-01
9.709542857139389e-04	-8.509599e-02	-8.500000e-01
9.790971428567902e-04	-8.531667e-02	-8.500000e-01
9.872399999996413e-04	-8.551987e-02	-8.500000e-01
9.999999999999992e-04	-8.581572e-02	-8.500000e-01
1.000599999999999e-03	-8.550902e-02	1.700000e-01
1.000999999999998e-03	-8.508678e-02	8.500000e-01
1.002239999999996e-03	-8.328391e-02	8.500000e-01
1.008097142857135e-03	-7.505423e-02	8.500000e-01
1.013954285714273e-03	-6.717783e-02	8.500000e-01
1.019811428571412e-03	-5.965470e-02	8.500000e-01
1.025668571428551e-03	-5.248484e-02	8.500000e-01
1.031525714285689e-03	-4.566825e-02	8.500000e-01
1.037382857142828e-03	-3.920494e-02	8.500000e-01
1.043239999999966e-03	-3.309490e-02	8.500000e-01
1.047954285714248e-03	-2.837587e-02	8.500000e-01
1.052668571428531e-03	-2.382424e-02	8.500000e-01
1.057382857142813e-03	-1.944002e-02	8.500000e-01
1.062097142857095e-03	-1.522320e-02	8.500000e-01
1.066811428571377e-03	-1.117379e-02	8.500000e-01
1.071525714285660e-03	-7.291779e-03	8.500000e-01
1.076239999999942e-03	-3.577176e-03	8.500000e-01
1.078239999999940e-03	-2.038619e-03	8.500000e-01
1.080239999999939e-03	-5.257934e-04	8.500000e-01
1.081239999999938e-03	2.211053e-04	8.500000e-01
1.083239999999937e-03	1.696140e-03	8.500000e-01
1.086239999999935e-03	3.862567e-03	8.500000e-01
1.091954285714216e-03	7.820047e-03	8.500000e-01
1.097668571428498e-03	1.161121e-02	8.500000e-01
1.103382857142779e-03	1.523605e-02	8.500000e-01
1.109097142857061e-03	1.869458e-02	8.500000e-01
1.114811428571342e-03	2.198678e-02	8.500000e-01
1.120525714285624e-03	2.511267e-02	8.500000e-01
1.126239999999905e-03	2.807224e-02	8.500000e-01
1.136668571428469e-03	3.307364e-02	8.500000e-01
1.147097142857033e-03	3.772887e-02	8.500000e-01
1.157525714285597e-03	4.203794e-02	8.500000e-01
1.167954285714160e-03	4.600084e-02	8.500000e-01
1.178382857142724e-03	4.961757e-02	8.500000e-01
1.188811428571288e-03	5.288814e-02	8.500000e-01
1.199239999999852e-03	5.581254e-02	8.500000e-01
1.210097142856986e-03	5.861766e-02	8.500000e-01
1.220954285714121e-03	6.122244e-02	8.500000e-01
1.231811428571256e-03	6.362689e-02	8.500000e-01
1.242668571428391e-03	6.583101e-02	8.500000e-01
1.253525714285526e-03	6.783479e-02	8.500000e-01
1.264382857142661e-03	6.963824e-02	8.500000e-01
1.275239999999796e-03	7.124136e-02	8.500000e-01
1.286239999999788e-03	7.273712e-02	8.500000e-01
1.297239999999780e-03	7.412498e-02	8.500000e-01
1.308239999999771e-03	7.540492e-02	8.500000e-01
1.319239999999763e-03	7.657696e-02	8.500000e-01
1.330239999999755e-03	7.764109e-02	8.500000e-01
1.341239999999747e-03	7.859732e-02	8.500000e-01
1.352239999999739e-03	7.944563e-02	8.500000e-01
1.363239999999731e-03	8.022702e-02	8.500000e-01
1.374239999999723e-03	8.095203e-02	8.500000e-01
1.385239999999715e-03	8.162068e-02	8.500000e-01
1.396239999999707e-03	8.223295e-02	8.500000e-01
1.407239999999699e-03	8.278886e-02	8.500000e-01
1.418239999999691e-03	8.328839e-02	8.500000e-01
1.429239999999683e-03	8.373155e-02	8.500000e-01
1.437382857142534e-03	8.403956e-02	8.500000e-01
1.445525714285385e-03	8.433009e-02	8.500000e-01
1.453668571428236e-03	8.460315e-02	8.500000e-01
1.461811428571087e-03	8.485873e-02	8.500000e-01
1.469954285713938e-03	8.509683e-02	8.500000e-01
1.478097142856790e-03	8.531745e-02	8.500000e-01
1.486239999999641e-03	8.552060e-02	8.500000e-01
1.488348571428263e-03	8.557165e-02	8.500000e-01
1.490457142856886e-03	8.562183e-02	8.500000e-01
1.492565714285509e-03	8.567116e-02	8.500000e-01
1.494674285714131e-03	8.571963e-02	8.500000e-01
1.496782857142754e-03	8.576725e-02	8.500000e-01
1.498891428571376e-03	8.581401e-02	8.500000e-01
1.500999999999999e-03	8.585991e-02	8.500000e-01
1.501599999999999e-03	8.555298e-02	-1.700000e-01
1.501999999999998e-03	8.513059e-02	-8.500000e-01
1.507748571428565e-03	7.696215e-02	-8.500000e-01
1.513497142857132e-03	6.913854e-02	-8.500000e-01
1.519245714285699e-03	6.165976e-02	-8.500000e-01
1.524994285714266e-03	5.452580e-02	-8.500000e-01
1.530742857142833e-03	4.773667e-02	-8.500000e-01
1.536491428571400e-03	4.129237e-02	-8.500000e-01
1.542239999999967e-03	3.519289e-02	-8.500000e-01
1.547239999999964e-03	3.010969e-02	-8.500000e-01
1.552239999999960e-03	2.521648e-02	-8.500000e-01
1.557239999999956e-03	2.051327e-02	-8.500000e-01
1.562239999999953e-03	1.600006e-02	-8.500000e-01
1.567239999999949e-03	1.167684e-02	-8.500000e-01
1.572239999999945e-03	7.543628e-03	-8.500000e-01
1.577239999999942e-03	3.600411e-03	-8.500000e-01
1.579239999999940e-03	2.061466e-03	-8.500000e-01
1.581239999999939e-03	5.482576e-04	-8.500000e-01
1.582239999999938e-03	-1.988297e-04	-8.500000e-01
1.584239999999936e-03	-1.674236e-03	-8.500000e-01
1.587239999999934e-03	-3.841211e-03	-8.500000e-01
1.592954285714216e-03	-7.799690e-03	-8.500000e-01
1.598668571428497e-03	-1.159181e-02	-8.500000e-01
1.604382857142779e-03	-1.521757e-02	-8.500000e-01
1.610097142857060e-03	-1.867697e-02	-8.500000e-01
1.615811428571342e-03	-2.197000e-02	-8.500000e-01
1.621525714285623e-03	-2.509668e-02	-8.500000e-01
1.627239999999905e-03	-2.805700e-02	-8.500000e-01
1.637668571428469e-03	-3.305966e-02	-8.500000e-01
1.648097142857032e-03	-3.771607e-02	-8.500000e-01
1.658525714285596e-03	-4.202622e-02	-8.500000e-01
1.668954285714160e-03	-4.599012e-02	-8.500000e-01
1.679382857142724e-03	-4.960777e-02	-8.500000e-01
1.689811428571287e-03	-5.287916e-02	-8.500000e-01
1.700239999999851e-03	-5.580430e-02	-8.500000e-01
1.711097142856986e-03	-5.861013e-02	-8.500000e-01
1.721954285714121e-03	-6.121557e-02	-8.500000e-01
1.732811428571256e-03	-6.362063e-02	-8.500000e-01
1.743668571428391e-03	-6.582530e-02	-8.500000e-01
1.754525714285526e-03	-6.782959e-02	-8.500000e-01
1.765382857142660e-03	-6.963350e-02	-8.500000e-01
1.776239999999795e-03	-7.123702e-02	-8.500000e-01
1.787239999999787e-03	-7.273316e-02	-8.500000e-01
1.798239999999779e-03	-7.412136e-02	-8.500000e-01
1.809239999999771e-03	-7.540163e-02	-8.500000e-01
1.820239999999763e-03	-7.657397e-02	-8.500000e-01
1.831239999999755e-03	-7.763837e-02	-8.500000e-01
1.842239999999747e-03	-7.859483e-02	-8.500000e-01
1.853239999999739e-03	-7.944337e-02	-8.500000e-01
1.864239999999731e-03	-8.022495e-02	-8.500000e-01
1.875239999999723e-03	-8.095015e-02	-8.500000e-01
1.886239999999715e-03	-8.161896e-02	-8.500000e-01
1.897239999999707e-03	-8.223139e-02	-8.500000e-01
1.908239999999698e-03	-8.278743e-02	-8.500000e-01
1.919239999999690e-03	-8.328709e-02	-8.500000e-01
1.930239999999682e-03	-8.373036e-02	-8.500000e-01
1.938382857142533e-03	-8.403845e-02	-8.500000e-01
1.946525714285385e-03	-8.432906e-02	-8.500000e-01
1.954668571428236e-03	-8.460218e-02	-8.500000e-01
1.962811428571087e-03	-8.485783e-02	-8.500000e-01
1.970954285713938e-03	-8.509599e-02	-8.500000e-01
1.979097142856789e-03	-8.531667e-02	-8.500000e-01
1.987239999999640e-03	-8.551987e-02	-8.500000e-01
2.000000000000000e-03	-8.581572e-02	-8.500000e-01
2.000600000000000e-03	-8.550902e-02	1.700000e-01
2.000999999999999e-03	-8.508678e-02	8.500000e-01
2.012239999999990e-03	-6.939933e-02	8.500000e-01
2.018954285714271e-03	-6.077233e-02	8.500000e-01
2.025668571428551e-03	-5.256187e-02	8.500000e-01
2.032382857142832e-03	-4.476795e-02	8.500000e-01
2.039097142857113e-03	-3.739057e-02	8.500000e-01
2.045811428571394e-03	-3.042972e-02	8.500000e-01
2.052525714285674e-03	-2.388542e-02	8.500000e-01
2.059239999999955e-03	-1.775766e-02	8.500000e-01
2.062382857142810e-03	-1.498518e-02	8.500000e-01
2.065525714285665e-03	-1.228073e-02	8.500000e-01
2.068668571428520e-03	-9.644304e-03	8.500000e-01
2.071811428571375e-03	-7.075910e-03	8.500000e-01
2.074954285714230e-03	-4.575543e-03	8.500000e-01
2.078097142857084e-03	-2.143205e-03	8.500000e-01
2.081239999999939e-03	2.211053e-04	8.500000e-01
2.083239999999938e-03	1.696140e-03	8.500000e-01
2.086239999999935e-03	3.862567e-03	8.500000e-01
2.091954285714217e-03	7.820047e-03	8.500000e-01
2.097668571428498e-03	1.161121e-02	8.500000e-01
2.103382857142780e-03	1.523605e-02	8.500000e-01
2.109097142857062e-03	1.869458e-02	8.500000e-01
2.114811428571343e-03	2.198678e-02	8.500000e-01
2.120525714285624e-03	2.511267e-02	8.500000e-01
2.126239999999906e-03	2.807224e-02	8.500000e-01
2.136668571428470e-03	3.307364e-02	8.500000e-01
2.147097142857034e-03	3.772887e-02	8.500000e-01
2.157525714285597e-03	4.203794e-02	8.500000e-01
2.167954285714161e-03	4.600084e-02	8.500000e-01
2.178382857142725e-03	4.961757e-02	8.500000e-01
2.188811428571289e-03	5.288814e-02	8.500000e-01
2.199239999999852e-03	5.581254e-02	8.500000e-01
2.210097142856987e-03	5.861766e-02	8.500000e-01
2.220954285714122e-03	6.122244e-02	8.500000e-01
2.231811428571257e-03	6.362689e-02	8.500000e-01
2.242668571428392e-03	6.583101e-02	8.500000e-01
2.253525714285527e-03	6.783479e-02	8.500000e-01
2.264382857142662e-03	6.963824e-02	8.500000e-01
2.275239999999797e-03	7.124136e-02	8.500000e-01
2.286239999999789e-03	7.273712e-02	8.500000e-01
2.297239999999780e-03	7.412498e-02	8.500000e-01
2.308239999999772e-03	7.540492e-02	8.500000e-01
2.319239999999764e-03	7.657696e-02	8.500000e-01
2.330239999999756e-03	7.764109e-02	8.500000e-01
2.341239999999748e-03	7.859732e-02	8.500000e-01
2.352239999999740e-03	7.944563e-02	8.500000e-01
2.363239999999732e-03	8.022702e-02	8.500000e-01
2.374239999999724e-03	8.095203e-02	8.500000e-01
2.385239999999716e-03	8.162068e-02	8.500000e-01
2.396239999999708e-03	8.223295e-02	8.500000e-01
2.407239999999700e-03	8.278886e-02	8.500000e-01
2.418239999999692e-03	8.328839e-02	8.500000e-01
2.429239999999683e-03	8.373155e-02	8.500000e-01
2.437382857142535e-03	8.403956e-02	8.500000e-01
2.445525714285386e-03	8.433009e-02	8.500000e-01
2.453668571428237e-03	8.460315e-02	8.500000e-01
2.461811428571088e-03	8.485873e-02	8.500000e-01
2.469954285713939e-03	8.509683e-02	8.500000e-01
2.478097142856790e-03	8.531745e-02	8.500000e-01
2.486239999999642e-03	8.552060e-02	8.500000e-01
2.488348571428264e-03	8.557165e-02	8.500000e-01
2.490457142856887e-03	8.562183e-02	8.500000e-01
2.492565714285509e-03	8.567116e-02	8.500000e-01
2.494674285714132e-03	8.571963e-02	8.500000e-01
2.496782857142755e-03	8.576725e-02	8.500000e-01
2.498891428571377e-03	8.581401e-02	8.500000e-01
2.501000000000000e-03	8.585991e-02	8.500000e-01
2.501600000000000e-03	8.555298e-02	-1.700000e-01
2.501999999999999e-03	8.513059e-02	-8.500000e-01
2.507748571428566e-03	7.696215e-02	-8.500000e-01
2.513497142857133e-03	6.913854e-02	-8.500000e-01
2.519245714285700e-03	6.165976e-02	-8.500000e-01
2.524994285714267e-03	5.452580e-02	-8.500000e-01
2.530742857142834e-03	4.773667e-02	-8.500000e-01
2.536491428571401e-03	4.129237e-02	-8.500000e-01
2.542239999999968e-03	3.519289e-02	-8.500000e-01
2.547239999999965e-03	3.010969e-02	-8.500000e-01
2.552239999999961e-03	2.521648e-02	-8.500000e-01
2.557239999999957e-03	2.051327e-02	-8.500000e-01
2.562239999999954e-03	1.600006e-02	-8.500000e-01
2.567239999999950e-03	1.167684e-02	-8.500000e-01
2.572239999999946e-03	7.543628e-03	-8.500000e-01
2.577239999999942e-03	3.600411e-03	-8.500000e-01
2.579239999999941e-03	2.061466e-03	-8.500000e-01
2.581239999999940e-03	5.482576e-04	-8.500000e-01
2.582239999999939e-03	-1.988297e-04	-8.500000e-01
2.584239999999937e-03	-1.674236e-03	-8.500000e-01
2.587239999999935e-03	-3.841211e-03	-8.500000e-01
2.592954285714217e-03	-7.799690e-03	-8.500000e-01
2.598668571428498e-03	-1.159181e-02	-8.500000e-01
2.604382857142780e-03	-1.521757e-02	-8.500000e-01
2.610097142857061e-03	-1.867697e-02	-8.500000e-01
2.615811428571343e-03	-2.197000e-02	-8.500000e-01
2.621525714285624e-03	-2.509668e-02	-8.500000e-01
2.627239999999906e-03	-2.805700e-02	-8.500000e-01
2.637668571428469e-03	-3.305966e-02	-8.500000e-01
2.648097142857033e-03	-3.771607e-02	-8.500000e-01
2.658525714285597e-03	-4.202622e-02	-8.500000e-01
2.668954285714161e-03	-4.599012e-02	-8.500000e-01
2.679382857142725e-03	-4.960777e-02	-8.500000e-01
2.689811428571289e-03	-5.287916e-02	-8.500000e-01
2.700239999999852e-03	-5.580430e-02	-8.500000e-01
2.711097142856987e-03	-5.861013e-02	-8.500000e-01
2.721954285714122e-03	-6.121557e-02	-8.500000e-01
2.732811428571257e-03	-6.362063e-02	-8.500000e-01
2.743668571428391e-03	-6.582530e-02	-8.500000e-01
2.754525714285526e-03	-6.782959e-02	-8.500000e-01
2.765382857142661e-03	-6.963350e-02	-8.500000e-01
2.776239999999796e-03	-7.123702e-02	-8.500000e-01
2.787239999999788e-03	-7.273316e-02	-8.500000e-01
2.798239999999780e-03	-7.412136e-02	-8.500000e-01
2.809239999999772e-03	-7.540163e-02	-8.500000e-01
2.820239999999764e-03	-7.657397e-02	-8.500000e-01
2.831239999999756e-03	-7.763837e-02	-8.500000e-01
2.842239999999748e-03	-7.859483e-02	-8.500000e-01
2.853239999999740e-03	-7.944337e-02	-8.500000e-01
2.864239999999732e-03	-8.022495e-02	-8.500000e-01
2.875239999999724e-03	-8.095015e-02	-8.500000e-01
2.886239999999715e-03	-8.161896e-02	-8.500000e-01
2.897239999999707e-03	-8.223139e-02	-8.500000e-01
2.908239999999699e-03	-8.278743e-02	-8.500000e-01
2.919239999999691e-03	-8.328709e-02	-8.500000e-01
2.930239999999683e-03	-8.373036e-02	-8.500000e-01
2.938382857142534e-03	-8.403845e-02	-8.500000e-01
2.946525714285385e-03	-8.432906e-02	-8.500000e-01
2.954668571428236e-03	-8.460218e-02	-8.500000e-01
2.962811428571088e-03	-8.485783e-02	-8.500000e-01
