time	V(vpr)	V(n001)
0.000000000000000e+00	-5.055126e-01	-8.500000e-01
2.999999999999531e-07	-5.042706e-01	-3.400000e-01
5.999999999999062e-07	-5.014115e-01	1.700000e-01
9.999999999992654e-07	-4.958234e-01	8.500000e-01
1.039999999999028e-06	-4.951327e-01	8.500000e-01
4.211428571425121e-06	-4.371874e-01	8.500000e-01
7.382857142851215e-06	-3.821807e-01	8.500000e-01
1.055428571427731e-05	-3.301124e-01	8.500000e-01
1.372571428570340e-05	-2.809826e-01	8.500000e-01
1.689714285712950e-05	-2.347913e-01	8.500000e-01
2.006857142855559e-05	-1.915385e-01	8.500000e-01
2.323999999998168e-05	-1.512242e-01	8.500000e-01
2.623999999997947e-05	-1.148858e-01	8.500000e-01
2.923999999997727e-05	-8.055792e-02	8.500000e-01
3.123999999997580e-05	-5.873436e-02	8.500000e-01
3.323999999997433e-05	-3.772333e-02	8.500000e-01
3.423999999997360e-05	-2.751302e-02	8.500000e-01
3.523999999997286e-05	-1.749459e-02	8.500000e-01
3.623999999997213e-05	-7.664434e-03	8.500000e-01
3.723999999997139e-05	1.980990e-03	8.500000e-01
3.823999999997066e-05	1.144515e-02	8.500000e-01
3.923999999996992e-05	2.073146e-02	8.500000e-01
4.023999999996919e-05	2.984325e-02	8.500000e-01
4.223999999996772e-05	4.755635e-02	8.500000e-01
4.423999999996625e-05	6.460995e-02	8.500000e-01
4.723999999996405e-05	8.900726e-02	8.500000e-01
5.023999999996184e-05	1.120548e-01	8.500000e-01
5.423999999995890e-05	1.404709e-01	8.500000e-01
5.823999999995597e-05	1.671377e-01	8.500000e-01
6.223999999995303e-05	1.920552e-01	8.500000e-01
6.623999999995009e-05	2.152233e-01	8.500000e-01
7.023999999994715e-05	2.366422e-01	8.500000e-01
7.423999999994423e-05	2.563116e-01	8.500000e-01
7.823999999994127e-05	2.742318e-01	8.500000e-01
8.295428571422353e-05	2.937085e-01	8.500000e-01
8.766857142850578e-05	3.118192e-01	8.500000e-01
9.238285714278803e-05	3.285641e-01	8.500000e-01
9.709714285707028e-05	3.439431e-01	8.500000e-01
1.018114285713525e-04	3.579561e-01	8.500000e-01
1.065257142856348e-04	3.706033e-01	8.500000e-01
1.112399999999170e-04	3.818845e-01	8.500000e-01
1.160971428570563e-04	3.925903e-01	8.500000e-01
1.209542857141956e-04	4.025278e-01	8.500000e-01
1.258114285713349e-04	4.116968e-01	8.500000e-01
1.306685714284742e-04	4.200975e-01	8.500000e-01
1.355257142856135e-04	4.277297e-01	8.500000e-01
1.403828571427528e-04	4.345935e-01	8.500000e-01
1.452399999998921e-04	4.406890e-01	8.500000e-01
1.500971428570313e-04	4.463058e-01	8.500000e-01
1.549542857141706e-04	4.515194e-01	8.500000e-01
1.598114285713099e-04	4.563299e-01	8.500000e-01
1.646685714284492e-04	4.607373e-01	8.500000e-01
1.695257142855885e-04	4.647415e-01	8.500000e-01
1.743828571427278e-04	4.683426e-01	8.500000e-01
1.792399999998671e-04	4.715406e-01	8.500000e-01
1.842399999998634e-04	4.745673e-01	8.500000e-01
1.892399999998597e-04	4.773719e-01	8.500000e-01
1.942399999998561e-04	4.799543e-01	8.500000e-01
1.992399999998524e-04	4.823146e-01	8.500000e-01
2.042399999998487e-04	4.844527e-01	8.500000e-01
2.092399999998450e-04	4.863687e-01	8.500000e-01
2.142399999998414e-04	4.880626e-01	8.500000e-01
2.193828571426947e-04	4.896616e-01	8.500000e-01
2.245257142855481e-04	4.911407e-01	8.500000e-01
2.296685714284015e-04	4.924998e-01	8.500000e-01
2.348114285712548e-04	4.937391e-01	8.500000e-01
2.399542857141082e-04	4.948585e-01	8.500000e-01
2.450971428569616e-04	4.958579e-01	8.500000e-01
2.502399999998149e-04	4.967374e-01	8.500000e-01
2.556685714283823e-04	4.975861e-01	8.500000e-01
2.610971428569498e-04	4.983685e-01	8.500000e-01
2.665257142855172e-04	4.990845e-01	8.500000e-01
2.719542857140847e-04	4.997343e-01	8.500000e-01
2.773828571426521e-04	5.003177e-01	8.500000e-01
2.828114285712196e-04	5.008349e-01	8.500000e-01
2.882399999997870e-04	5.012857e-01	8.500000e-01
2.942399999997826e-04	5.017377e-01	8.500000e-01
3.002399999997782e-04	5.021516e-01	8.500000e-01
3.062399999997738e-04	5.025274e-01	8.500000e-01
3.122399999997694e-04	5.028653e-01	8.500000e-01
3.182399999997650e-04	5.031651e-01	8.500000e-01
3.242399999997606e-04	5.034269e-01	8.500000e-01
3.302399999997561e-04	5.036506e-01	8.500000e-01
3.373828571426080e-04	5.038885e-01	8.500000e-01
3.445257142854599e-04	5.041037e-01	8.500000e-01
3.516685714283119e-04	5.042963e-01	8.500000e-01
3.588114285711638e-04	5.044662e-01	8.500000e-01
3.659542857140156e-04	5.046134e-01	8.500000e-01
3.730971428568675e-04	5.047380e-01	8.500000e-01
3.802399999997194e-04	5.048399e-01	8.500000e-01
3.899542857139980e-04	5.049595e-01	8.500000e-01
3.996685714282766e-04	5.050652e-01	8.500000e-01
4.093828571425551e-04	5.051569e-01	8.500000e-01
4.190971428568337e-04	5.052348e-01	8.500000e-01
4.288114285711123e-04	5.052987e-01	8.500000e-01
4.385257142853909e-04	5.053486e-01	8.500000e-01
4.482399999996695e-04	5.053847e-01	8.500000e-01
4.549542857139503e-04	5.054087e-01	8.500000e-01
4.616685714282311e-04	5.054305e-01	8.500000e-01
4.683828571425118e-04	5.054501e-01	8.500000e-01
4.750971428567926e-04	5.054676e-01	8.500000e-01
4.818114285710734e-04	5.054828e-01	8.500000e-01
4.885257142853541e-04	5.054959e-01	8.500000e-01
4.952399999996349e-04	5.055068e-01	8.500000e-01
5.009999999999997e-04	5.055155e-01	8.500000e-01
5.012999999999997e-04	5.042735e-01	3.400000e-01
5.019999999999990e-04	4.958948e-01	-8.500000e-01
5.051771428571393e-04	4.378055e-01	-8.500000e-01
5.083542857142796e-04	3.826666e-01	-8.500000e-01
5.115314285714200e-04	3.304779e-01	-8.500000e-01
5.147085714285604e-04	2.812395e-01	-8.500000e-01
5.178857142857007e-04	2.349514e-01	-8.500000e-01
5.210628571428411e-04	1.916136e-01	-8.500000e-01
5.242399999999814e-04	1.512261e-01	-8.500000e-01
5.272399999999792e-04	1.148876e-01	-8.500000e-01
5.302399999999770e-04	8.055961e-02	-8.500000e-01
5.322399999999755e-04	5.873599e-02	-8.500000e-01
5.342399999999740e-04	3.772490e-02	-8.500000e-01
5.352399999999733e-04	2.751456e-02	-8.500000e-01
5.362399999999726e-04	1.749610e-02	-8.500000e-01
5.372399999999718e-04	7.665913e-03	-8.500000e-01
5.382399999999711e-04	-1.979539e-03	-8.500000e-01
5.392399999999704e-04	-1.144373e-02	-8.500000e-01
5.402399999999696e-04	-2.073006e-02	-8.500000e-01
5.412399999999689e-04	-2.984188e-02	-8.500000e-01
5.432399999999674e-04	-4.755503e-02	-8.500000e-01
5.452399999999660e-04	-6.460868e-02	-8.500000e-01
5.482399999999638e-04	-8.900605e-02	-8.500000e-01
5.512399999999616e-04	-1.120536e-01	-8.500000e-01
5.552399999999586e-04	-1.404699e-01	-8.500000e-01
5.592399999999557e-04	-1.671368e-01	-8.500000e-01
5.632399999999527e-04	-1.920543e-01	-8.500000e-01
5.672399999999498e-04	-2.152225e-01	-8.500000e-01
5.712399999999469e-04	-2.366414e-01	-8.500000e-01
5.752399999999439e-04	-2.563109e-01	-8.500000e-01
5.792399999999410e-04	-2.742311e-01	-8.500000e-01
5.839542857142232e-04	-2.937078e-01	-8.500000e-01
5.886685714285055e-04	-3.118187e-01	-8.500000e-01
5.933828571427878e-04	-3.285636e-01	-8.500000e-01
5.980971428570700e-04	-3.439426e-01	-8.500000e-01
6.028114285713522e-04	-3.579557e-01	-8.500000e-01
6.075257142856345e-04	-3.706029e-01	-8.500000e-01
6.122399999999167e-04	-3.818842e-01	-8.500000e-01
6.170971428570560e-04	-3.925900e-01	-8.500000e-01
6.219542857141953e-04	-4.025275e-01	-8.500000e-01
6.268114285713346e-04	-4.116966e-01	-8.500000e-01
6.316685714284739e-04	-4.200972e-01	-8.500000e-01
6.365257142856132e-04	-4.277295e-01	-8.500000e-01
6.413828571427525e-04	-4.345933e-01	-8.500000e-01
6.462399999998918e-04	-4.406888e-01	-8.500000e-01
6.510971428570310e-04	-4.463056e-01	-8.500000e-01
6.559542857141704e-04	-4.515193e-01	-8.500000e-01
6.608114285713096e-04	-4.563298e-01	-8.500000e-01
6.656685714284489e-04	-4.607372e-01	-8.500000e-01
6.705257142855882e-04	-4.647414e-01	-8.500000e-01
6.753828571427275e-04	-4.683425e-01	-8.500000e-01
6.802399999998668e-04	-4.715405e-01	-8.500000e-01
6.852399999998631e-04	-4.745672e-01	-8.500000e-01
6.902399999998594e-04	-4.773718e-01	-8.500000e-01
6.952399999998558e-04	-4.799543e-01	-8.500000e-01
7.002399999998521e-04	-4.823145e-01	-8.500000e-01
7.052399999998484e-04	-4.844527e-01	-8.500000e-01
7.102399999998447e-04	-4.863687e-01	-8.500000e-01
7.152399999998411e-04	-4.880625e-01	-8.500000e-01
7.203828571426945e-04	-4.896615e-01	-8.500000e-01
7.255257142855478e-04	-4.911406e-01	-8.500000e-01
7.306685714284012e-04	-4.924998e-01	-8.500000e-01
7.358114285712545e-04	-4.937391e-01	-8.500000e-01
7.409542857141079e-04	-4.948584e-01	-8.500000e-01
7.460971428569613e-04	-4.958579e-01	-8.500000e-01
7.512399999998146e-04	-4.967374e-01	-8.500000e-01
7.566685714283821e-04	-4.975861e-01	-8.500000e-01
7.620971428569495e-04	-4.983684e-01	-8.500000e-01
7.675257142855169e-04	-4.990845e-01	-8.500000e-01
7.729542857140844e-04	-4.997343e-01	-8.500000e-01
7.783828571426519e-04	-5.003177e-01	-8.500000e-01
7.838114285712192e-04	-5.008349e-01	-8.500000e-01
7.892399999997867e-04	-5.012857e-01	-8.500000e-01
7.952399999997823e-04	-5.017377e-01	-8.500000e-01
8.012399999997779e-04	-5.021516e-01	-8.500000e-01
8.072399999997735e-04	-5.025274e-01	-8.500000e-01
8.132399999997691e-04	-5.028653e-01	-8.500000e-01
8.192399999997647e-04	-5.031651e-01	-8.500000e-01
8.252399999997603e-04	-5.034269e-01	-8.500000e-01
8.312399999997559e-04	-5.036506e-01	-8.500000e-01
8.383828571426078e-04	-5.038885e-01	-8.500000e-01
8.455257142854596e-04	-5.041037e-01	-8.500000e-01
8.526685714283116e-04	-5.042963e-01	-8.500000e-01
8.598114285711634e-04	-5.044662e-01	-8.500000e-01
8.669542857140153e-04	-5.046134e-01	-8.500000e-01
8.740971428568673e-04	-5.047379e-01	-8.500000e-01
8.812399999997191e-04	-5.048398e-01	-8.500000e-01
8.909542857139977e-04	-5.049595e-01	-8.500000e-01
9.006685714282763e-04	-5.050652e-01	-8.500000e-01
9.103828571425549e-04	-5.051569e-01	-8.500000e-01
9.200971428568335e-04	-5.052348e-01	-8.500000e-01
9.298114285711120e-04	-5.052987e-01	-8.500000e-01
9.395257142853906e-04	-5.053486e-01	-8.500000e-01
9.492399999996692e-04	-5.053847e-01	-8.500000e-01
9.558114285710929e-04	-5.054082e-01	-8.500000e-01
9.623828571425167e-04	-5.054297e-01	-8.500000e-01
9.689542857139404e-04	-5.054490e-01	-8.500000e-01
9.755257142853641e-04	-5.054662e-01	-8.500000e-01
9.820971428567879e-04	-5.054813e-01	-8.500000e-01
9.886685714282117e-04	-5.054943e-01	-8.500000e-01
9.952399999996354e-04	-5.055051e-01	-8.500000e-01
9.999999999999992e-04	-5.055126e-01	-8.500000e-01
1.000299999999999e-03	-5.042706e-01	-3.400000e-01
1.000999999999998e-03	-4.958919e-01	8.500000e-01
1.002239999999996e-03	-4.726643e-01	8.500000e-01
1.005382857142851e-03	-4.164870e-01	8.500000e-01
1.008525714285706e-03	-3.631410e-01	8.500000e-01
1.011668571428561e-03	-3.126264e-01	8.500000e-01
1.014811428571416e-03	-2.649430e-01	8.500000e-01
1.017954285714270e-03	-2.200910e-01	8.500000e-01
1.021097142857125e-03	-1.780703e-01	8.500000e-01
1.024239999999980e-03	-1.388809e-01	8.500000e-01
1.027239999999978e-03	-1.032254e-01	8.500000e-01
1.029239999999976e-03	-8.055792e-02	8.500000e-01
1.031239999999975e-03	-5.873436e-02	8.500000e-01
1.033239999999973e-03	-3.772333e-02	8.500000e-01
1.034239999999973e-03	-2.751302e-02	8.500000e-01
1.035239999999972e-03	-1.749459e-02	8.500000e-01
1.036239999999971e-03	-7.664434e-03	8.500000e-01
1.037239999999971e-03	1.980990e-03	8.500000e-01
1.038239999999970e-03	1.144515e-02	8.500000e-01
1.039239999999969e-03	2.073146e-02	8.500000e-01
1.040239999999968e-03	2.984325e-02	8.500000e-01
1.042239999999967e-03	4.755635e-02	8.500000e-01
1.044239999999965e-03	6.460995e-02	8.500000e-01
1.047239999999963e-03	8.900726e-02	8.500000e-01
1.050239999999961e-03	1.120548e-01	8.500000e-01
1.054239999999958e-03	1.404709e-01	8.500000e-01
1.058239999999955e-03	1.671377e-01	8.500000e-01
1.062239999999952e-03	1.920552e-01	8.500000e-01
1.066239999999949e-03	2.152233e-01	8.500000e-01
1.070239999999946e-03	2.366422e-01	8.500000e-01
1.074239999999943e-03	2.563116e-01	8.500000e-01
1.078239999999940e-03	2.742318e-01	8.500000e-01
1.082954285714223e-03	2.937085e-01	8.500000e-01
1.087668571428505e-03	3.118192e-01	8.500000e-01
1.092382857142787e-03	3.285641e-01	8.500000e-01
1.097097142857069e-03	3.439431e-01	8.500000e-01
1.101811428571352e-03	3.579561e-01	8.500000e-01
1.106525714285634e-03	3.706033e-01	8.500000e-01
1.111239999999916e-03	3.818845e-01	8.500000e-01
1.116097142857056e-03	3.925903e-01	8.500000e-01
1.120954285714195e-03	4.025278e-01	8.500000e-01
1.125811428571334e-03	4.116968e-01	8.500000e-01
1.130668571428473e-03	4.200975e-01	8.500000e-01
1.135525714285613e-03	4.277297e-01	8.500000e-01
1.140382857142752e-03	4.345935e-01	8.500000e-01
1.145239999999891e-03	4.406890e-01	8.500000e-01
1.150097142857031e-03	4.463058e-01	8.500000e-01
1.154954285714170e-03	4.515194e-01	8.500000e-01
1.159811428571309e-03	4.563300e-01	8.500000e-01
1.164668571428448e-03	4.607373e-01	8.500000e-01
1.169525714285588e-03	4.647416e-01	8.500000e-01
1.174382857142727e-03	4.683427e-01	8.500000e-01
1.179239999999866e-03	4.715406e-01	8.500000e-01
1.184239999999863e-03	4.745673e-01	8.500000e-01
1.189239999999859e-03	4.773719e-01	8.500000e-01
1.194239999999855e-03	4.799543e-01	8.500000e-01
1.199239999999852e-03	4.823146e-01	8.500000e-01
1.204239999999848e-03	4.844527e-01	8.500000e-01
1.209239999999844e-03	4.863687e-01	8.500000e-01
1.214239999999841e-03	4.880626e-01	8.500000e-01
1.219382857142694e-03	4.896616e-01	8.500000e-01
1.224525714285547e-03	4.911407e-01	8.500000e-01
1.229668571428401e-03	4.924998e-01	8.500000e-01
1.234811428571254e-03	4.937391e-01	8.500000e-01
1.239954285714107e-03	4.948585e-01	8.500000e-01
1.245097142856961e-03	4.958579e-01	8.500000e-01
1.250239999999814e-03	4.967374e-01	8.500000e-01
1.255668571428382e-03	4.975861e-01	8.500000e-01
1.261097142856949e-03	4.983685e-01	8.500000e-01
1.266525714285516e-03	4.990845e-01	8.500000e-01
1.271954285714084e-03	4.997343e-01	8.500000e-01
1.277382857142651e-03	5.003177e-01	8.500000e-01
1.282811428571219e-03	5.008349e-01	8.500000e-01
1.288239999999786e-03	5.012857e-01	8.500000e-01
1.294239999999782e-03	5.017377e-01	8.500000e-01
1.300239999999777e-03	5.021516e-01	8.500000e-01
1.306239999999773e-03	5.025274e-01	8.500000e-01
1.312239999999769e-03	5.028653e-01	8.500000e-01
1.318239999999764e-03	5.031651e-01	8.500000e-01
1.324239999999760e-03	5.034269e-01	8.500000e-01
1.330239999999755e-03	5.036506e-01	8.500000e-01
1.337382857142607e-03	5.038885e-01	8.500000e-01
1.344525714285459e-03	5.041037e-01	8.500000e-01
1.351668571428311e-03	5.042963e-01	8.500000e-01
1.358811428571163e-03	5.044662e-01	8.500000e-01
1.365954285714015e-03	5.046134e-01	8.500000e-01
1.373097142856867e-03	5.047380e-01	8.500000e-01
1.380239999999719e-03	5.048399e-01	8.500000e-01
1.389954285713997e-03	5.049595e-01	8.500000e-01
1.399668571428276e-03	5.050652e-01	8.500000e-01
1.409382857142554e-03	5.051569e-01	8.500000e-01
1.419097142856833e-03	5.052348e-01	8.500000e-01
1.428811428571111e-03	5.052987e-01	8.500000e-01
1.438525714285390e-03	5.053486e-01	8.500000e-01
1.448239999999669e-03	5.053847e-01	8.500000e-01
1.454954285713949e-03	5.054087e-01	8.500000e-01
1.461668571428230e-03	5.054305e-01	8.500000e-01
1.468382857142511e-03	5.054501e-01	8.500000e-01
1.475097142856792e-03	5.054676e-01	8.500000e-01
1.481811428571072e-03	5.054828e-01	8.500000e-01
1.488525714285353e-03	5.054959e-01	8.500000e-01
1.495239999999634e-03	5.055068e-01	8.500000e-01
1.500999999999999e-03	5.055155e-01	8.500000e-01
1.501299999999999e-03	5.042735e-01	3.400000e-01
1.501999999999998e-03	4.958948e-01	-8.500000e-01
1.505177142857139e-03	4.378055e-01	-8.500000e-01
1.508354285714279e-03	3.826666e-01	-8.500000e-01
1.511531428571419e-03	3.304779e-01	-8.500000e-01
1.514708571428559e-03	2.812395e-01	-8.500000e-01
1.517885714285700e-03	2.349514e-01	-8.500000e-01
1.521062857142840e-03	1.916136e-01	-8.500000e-01
1.524239999999981e-03	1.512261e-01	-8.500000e-01
1.527239999999978e-03	1.148876e-01	-8.500000e-01
1.530239999999976e-03	8.055961e-02	-8.500000e-01
1.532239999999975e-03	5.873599e-02	-8.500000e-01
1.534239999999973e-03	3.772490e-02	-8.500000e-01
1.535239999999972e-03	2.751456e-02	-8.500000e-01
1.536239999999972e-03	1.749610e-02	-8.500000e-01
1.537239999999971e-03	7.665913e-03	-8.500000e-01
1.538239999999970e-03	-1.979539e-03	-8.500000e-01
1.539239999999970e-03	-1.144373e-02	-8.500000e-01
1.540239999999969e-03	-2.073006e-02	-8.500000e-01
1.541239999999968e-03	-2.984188e-02	-8.500000e-01
1.543239999999967e-03	-4.755503e-02	-8.500000e-01
1.545239999999965e-03	-6.460868e-02	-8.500000e-01
1.548239999999963e-03	-8.900605e-02	-8.500000e-01
1.551239999999961e-03	-1.120536e-01	-8.500000e-01
1.555239999999958e-03	-1.404699e-01	-8.500000e-01
1.559239999999955e-03	-1.671368e-01	-8.500000e-01
1.563239999999952e-03	-1.920543e-01	-8.500000e-01
1.567239999999949e-03	-2.152225e-01	-8.500000e-01
1.571239999999946e-03	-2.366414e-01	-8.500000e-01
1.575239999999943e-03	-2.563109e-01	-8.500000e-01
1.579239999999940e-03	-2.742311e-01	-8.500000e-01
1.583954285714222e-03	-2.937078e-01	-8.500000e-01
1.588668571428505e-03	-3.118187e-01	-8.500000e-01
1.593382857142787e-03	-3.285636e-01	-8.500000e-01
1.598097142857069e-03	-3.439426e-01	-8.500000e-01
1.602811428571351e-03	-3.579557e-01	-8.500000e-01
1.607525714285634e-03	-3.706029e-01	-8.500000e-01
1.612239999999916e-03	-3.818842e-01	-8.500000e-01
1.617097142857055e-03	-3.925900e-01	-8.500000e-01
1.621954285714194e-03	-4.025275e-01	-8.500000e-01
1.626811428571334e-03	-4.116966e-01	-8.500000e-01
1.631668571428473e-03	-4.200972e-01	-8.500000e-01
1.636525714285612e-03	-4.277295e-01	-8.500000e-01
1.641382857142752e-03	-4.345933e-01	-8.500000e-01
1.646239999999891e-03	-4.406888e-01	-8.500000e-01
1.651097142857030e-03	-4.463056e-01	-8.500000e-01
1.655954285714169e-03	-4.515193e-01	-8.500000e-01
1.660811428571309e-03	-4.563298e-01	-8.500000e-01
1.665668571428448e-03	-4.607372e-01	-8.500000e-01
1.670525714285587e-03	-4.647414e-01	-8.500000e-01
1.675382857142727e-03	-4.683425e-01	-8.500000e-01
1.680239999999866e-03	-4.715405e-01	-8.500000e-01
1.685239999999862e-03	-4.745672e-01	-8.500000e-01
1.690239999999859e-03	-4.773718e-01	-8.500000e-01
1.695239999999855e-03	-4.799543e-01	-8.500000e-01
1.700239999999851e-03	-4.823145e-01	-8.500000e-01
1.705239999999848e-03	-4.844527e-01	-8.500000e-01
1.710239999999844e-03	-4.863687e-01	-8.500000e-01
1.715239999999840e-03	-4.880625e-01	-8.500000e-01
1.720382857142694e-03	-4.896615e-01	-8.500000e-01
1.725525714285547e-03	-4.911406e-01	-8.500000e-01
1.730668571428400e-03	-4.924998e-01	-8.500000e-01
1.735811428571254e-03	-4.937391e-01	-8.500000e-01
1.740954285714107e-03	-4.948584e-01	-8.500000e-01
1.746097142856960e-03	-4.958579e-01	-8.500000e-01
1.751239999999814e-03	-4.967374e-01	-8.500000e-01
1.756668571428381e-03	-4.975861e-01	-8.500000e-01
1.762097142856949e-03	-4.983684e-01	-8.500000e-01
1.767525714285516e-03	-4.990845e-01	-8.500000e-01
1.772954285714083e-03	-4.997343e-01	-8.500000e-01
1.778382857142651e-03	-5.003177e-01	-8.500000e-01
1.783811428571218e-03	-5.008349e-01	-8.500000e-01
1.789239999999786e-03	-5.012857e-01	-8.500000e-01
1.795239999999781e-03	-5.017377e-01	-8.500000e-01
1.801239999999777e-03	-5.021516e-01	-8.500000e-01
1.807239999999773e-03	-5.025274e-01	-8.500000e-01
1.813239999999768e-03	-5.028653e-01	-8.500000e-01
1.819239999999764e-03	-5.031651e-01	-8.500000e-01
1.825239999999759e-03	-5.034269e-01	-8.500000e-01
1.831239999999755e-03	-5.036506e-01	-8.500000e-01
1.838382857142607e-03	-5.038885e-01	-8.500000e-01
1.845525714285459e-03	-5.041037e-01	-8.500000e-01
1.852668571428311e-03	-5.042963e-01	-8.500000e-01
1.859811428571163e-03	-5.044662e-01	-8.500000e-01
1.866954285714015e-03	-5.046134e-01	-8.500000e-01
1.874097142856866e-03	-5.047379e-01	-8.500000e-01
1.881239999999718e-03	-5.048398e-01	-8.500000e-01
1.890954285713997e-03	-5.049595e-01	-8.500000e-01
1.900668571428275e-03	-5.050652e-01	-8.500000e-01
