time	V(vpr)	V(n001)
0.000000000000000e+00	-8.347725e-01	-8.500000e-01
9.999999999940612e-08	-8.156904e-01	-6.800000e-01
2.999999999999531e-07	-7.466738e-01	-3.400000e-01
5.999999999999062e-07	-5.899168e-01	1.700000e-01
6.360123050927480e-07	-5.653057e-01	2.312209e-01
7.080369152784316e-07	-5.067694e-01	3.536628e-01
8.520861356497988e-07	-3.786645e-01	5.985464e-01
9.999999999992654e-07	-2.371190e-01	8.500000e-01
1.014791386434385e-06	-2.224010e-01	8.500000e-01
1.044374159304626e-06	-1.931208e-01	8.500000e-01
1.103539705045106e-06	-1.374553e-01	8.500000e-01
1.221870796524333e-06	-3.685143e-02	8.500000e-01
1.458532979482785e-06	1.350808e-01	8.500000e-01
1.731150704922108e-06	2.930553e-01	8.500000e-01
2.096321726709552e-06	4.499980e-01	8.500000e-01
2.509245611464692e-06	5.737889e-01	8.500000e-01
3.030957702668258e-06	6.747767e-01	8.500000e-01
3.619879466818660e-06	7.428818e-01	8.500000e-01
4.357109786665841e-06	7.886432e-01	8.500000e-01
5.222469803216334e-06	8.145854e-01	8.500000e-01
6.222469803215600e-06	8.272874e-01	8.500000e-01
7.222469803214865e-06	8.321447e-01	8.500000e-01
8.222469803214130e-06	8.338499e-01	8.500000e-01
9.222469803213396e-06	8.344486e-01	8.500000e-01
1.022246980321266e-05	8.346588e-01	8.500000e-01
1.122246980321193e-05	8.347325e-01	8.500000e-01
1.322246980321046e-05	8.347676e-01	8.500000e-01
2.150818408891866e-05	8.347698e-01	8.500000e-01
2.979389837462686e-05	8.347715e-01	8.500000e-01
3.807961266033506e-05	8.347727e-01	8.500000e-01
4.636532694604326e-05	8.347734e-01	8.500000e-01
5.465104123175147e-05	8.347736e-01	8.500000e-01
6.293675551745967e-05	8.347733e-01	8.500000e-01
7.122246980316785e-05	8.347725e-01	8.500000e-01
8.493675551744349e-05	8.347725e-01	8.500000e-01
9.865104123171913e-05	8.347725e-01	8.500000e-01
1.123653269459948e-04	8.347725e-01	8.500000e-01
1.260796126602704e-04	8.347725e-01	8.500000e-01
1.397938983745461e-04	8.347725e-01	8.500000e-01
1.535081840888217e-04	8.347725e-01	8.500000e-01
1.672224698030973e-04	8.347725e-01	8.500000e-01
1.949367555173627e-04	8.347725e-01	8.500000e-01
2.226510412316281e-04	8.347725e-01	8.500000e-01
2.503653269458934e-04	8.347725e-01	8.500000e-01
2.780796126601588e-04	8.347725e-01	8.500000e-01
3.057938983744242e-04	8.347725e-01	8.500000e-01
3.335081840886895e-04	8.347725e-01	8.500000e-01
3.612224698029548e-04	8.347725e-01	8.500000e-01
3.735081840886600e-04	8.347725e-01	8.500000e-01
3.857938983743653e-04	8.347725e-01	8.500000e-01
3.980796126600706e-04	8.347725e-01	8.500000e-01
4.103653269457759e-04	8.347725e-01	8.500000e-01
4.226510412314811e-04	8.347725e-01	8.500000e-01
4.349367555171864e-04	8.347725e-01	8.500000e-01
4.472224698028916e-04	8.347725e-01	8.500000e-01
4.539367555171724e-04	8.347725e-01	8.500000e-01
4.606510412314532e-04	8.347725e-01	8.500000e-01
4.673653269457340e-04	8.347725e-01	8.500000e-01
4.740796126600148e-04	8.347725e-01	8.500000e-01
4.807938983742956e-04	8.347725e-01	8.500000e-01
4.875081840885763e-04	8.347725e-01	8.500000e-01
4.942224698028571e-04	8.347725e-01	8.500000e-01
5.009999999999997e-04	8.347725e-01	8.500000e-01
5.010999999999991e-04	8.156904e-01	6.800000e-01
5.012999999999997e-04	7.466738e-01	3.400000e-01
5.015999999999996e-04	5.899168e-01	-1.700000e-01
5.016360123050925e-04	5.653057e-01	-2.312209e-01
5.017080369152781e-04	5.067694e-01	-3.536628e-01
5.018520861356495e-04	3.786645e-01	-5.985464e-01
5.019999999999990e-04	2.373509e-01	-8.500000e-01
5.020443741593043e-04	1.931208e-01	-8.500000e-01
5.021035397050448e-04	1.374553e-01	-8.500000e-01
5.022218707965240e-04	3.685143e-02	-8.500000e-01
5.024585329794825e-04	-1.350808e-01	-8.500000e-01
5.027311507049218e-04	-2.930553e-01	-8.500000e-01
5.030963217267093e-04	-4.499980e-01	-8.500000e-01
5.035092456114644e-04	-5.737889e-01	-8.500000e-01
5.040309577026680e-04	-6.747767e-01	-8.500000e-01
5.046198794668184e-04	-7.428818e-01	-8.500000e-01
5.053571097866656e-04	-7.886432e-01	-8.500000e-01
5.062224698032160e-04	-8.145854e-01	-8.500000e-01
5.072224698032153e-04	-8.272874e-01	-8.500000e-01
5.082224698032146e-04	-8.321447e-01	-8.500000e-01
5.092224698032138e-04	-8.338499e-01	-8.500000e-01
5.102224698032131e-04	-8.344486e-01	-8.500000e-01
5.112224698032124e-04	-8.346588e-01	-8.500000e-01
5.122224698032116e-04	-8.347325e-01	-8.500000e-01
5.142224698032102e-04	-8.347676e-01	-8.500000e-01
5.226510412317754e-04	-8.347698e-01	-8.500000e-01
5.310796126603406e-04	-8.347715e-01	-8.500000e-01
5.395081840889059e-04	-8.347727e-01	-8.500000e-01
5.479367555174711e-04	-8.347734e-01	-8.500000e-01
5.563653269460364e-04	-8.347736e-01	-8.500000e-01
5.647938983746016e-04	-8.347733e-01	-8.500000e-01
5.732224698031668e-04	-8.347725e-01	-8.500000e-01
5.872224698031565e-04	-8.347725e-01	-8.500000e-01
6.012224698031463e-04	-8.347725e-01	-8.500000e-01
6.152224698031360e-04	-8.347725e-01	-8.500000e-01
6.292224698031257e-04	-8.347725e-01	-8.500000e-01
6.432224698031154e-04	-8.347725e-01	-8.500000e-01
6.572224698031051e-04	-8.347725e-01	-8.500000e-01
6.712224698030948e-04	-8.347725e-01	-8.500000e-01
6.983653269459321e-04	-8.347725e-01	-8.500000e-01
7.255081840887692e-04	-8.347725e-01	-8.500000e-01
7.526510412316065e-04	-8.347725e-01	-8.500000e-01
7.797938983744437e-04	-8.347725e-01	-8.500000e-01
8.069367555172809e-04	-8.347725e-01	-8.500000e-01
8.340796126601181e-04	-8.347725e-01	-8.500000e-01
8.612224698029552e-04	-8.347725e-01	-8.500000e-01
8.735081840886605e-04	-8.347725e-01	-8.500000e-01
8.857938983743657e-04	-8.347725e-01	-8.500000e-01
8.980796126600711e-04	-8.347725e-01	-8.500000e-01
9.103653269457763e-04	-8.347725e-01	-8.500000e-01
9.226510412314816e-04	-8.347725e-01	-8.500000e-01
9.349367555171868e-04	-8.347725e-01	-8.500000e-01
9.472224698028921e-04	-8.347725e-01	-8.500000e-01
9.539367555171729e-04	-8.347725e-01	-8.500000e-01
9.606510412314537e-04	-8.347725e-01	-8.500000e-01
9.673653269457345e-04	-8.347725e-01	-8.500000e-01
9.740796126600153e-04	-8.347725e-01	-8.500000e-01
9.807938983742959e-04	-8.347725e-01	-8.500000e-01
9.875081840885769e-04	-8.347725e-01	-8.500000e-01
9.942224698028575e-04	-8.347725e-01	-8.500000e-01
9.952224698028568e-04	-8.347725e-01	-8.500000e-01
9.999999999999992e-04	-8.347725e-01	-8.500000e-01
1.000099999999999e-03	-8.156904e-01	-6.800000e-01
1.000299999999999e-03	-7.466738e-01	-3.400000e-01
1.000599999999999e-03	-5.899168e-01	1.700000e-01
1.000636012305092e-03	-5.653057e-01	2.312209e-01
1.000708036915278e-03	-5.067694e-01	3.536628e-01
1.000852086135649e-03	-3.786645e-01	5.985464e-01
1.000999999999998e-03	-2.373509e-01	8.500000e-01
1.001044374159304e-03	-1.931208e-01	8.500000e-01
1.001103539705044e-03	-1.374553e-01	8.500000e-01
1.001221870796523e-03	-3.685143e-02	8.500000e-01
1.001458532979482e-03	1.350808e-01	8.500000e-01
1.001731150704921e-03	2.930553e-01	8.500000e-01
1.002096321726709e-03	4.499980e-01	8.500000e-01
1.002509245611464e-03	5.737889e-01	8.500000e-01
1.003030957702667e-03	6.747767e-01	8.500000e-01
1.003619879466818e-03	7.428818e-01	8.500000e-01
1.004357109786665e-03	7.886432e-01	8.500000e-01
1.005222469803215e-03	8.145854e-01	8.500000e-01
1.006222469803215e-03	8.272874e-01	8.500000e-01
1.007222469803214e-03	8.321447e-01	8.500000e-01
1.008222469803213e-03	8.338499e-01	8.500000e-01
1.009222469803213e-03	8.344486e-01	8.500000e-01
1.010222469803212e-03	8.346588e-01	8.500000e-01
1.011222469803211e-03	8.347325e-01	8.500000e-01
1.013222469803210e-03	8.347676e-01	8.500000e-01
1.021508184088918e-03	8.347698e-01	8.500000e-01
1.029793898374626e-03	8.347715e-01	8.500000e-01
1.038079612660334e-03	8.347727e-01	8.500000e-01
1.046365326946042e-03	8.347734e-01	8.500000e-01
1.054651041231751e-03	8.347736e-01	8.500000e-01
1.062936755517459e-03	8.347733e-01	8.500000e-01
1.071222469803167e-03	8.347725e-01	8.500000e-01
1.084936755517443e-03	8.347725e-01	8.500000e-01
1.098651041231718e-03	8.347725e-01	8.500000e-01
1.112365326945994e-03	8.347725e-01	8.500000e-01
1.126079612660270e-03	8.347725e-01	8.500000e-01
1.139793898374545e-03	8.347725e-01	8.500000e-01
1.153508184088821e-03	8.347725e-01	8.500000e-01
1.167222469803096e-03	8.347725e-01	8.500000e-01
1.194936755517362e-03	8.347725e-01	8.500000e-01
1.222651041231627e-03	8.347725e-01	8.500000e-01
1.250365326945892e-03	8.347725e-01	8.500000e-01
1.278079612660158e-03	8.347725e-01	8.500000e-01
1.305793898374423e-03	8.347725e-01	8.500000e-01
1.333508184088689e-03	8.347725e-01	8.500000e-01
1.361222469802954e-03	8.347725e-01	8.500000e-01
1.373508184088659e-03	8.347725e-01	8.500000e-01
1.385793898374364e-03	8.347725e-01	8.500000e-01
1.398079612660070e-03	8.347725e-01	8.500000e-01
1.410365326945775e-03	8.347725e-01	8.500000e-01
1.422651041231480e-03	8.347725e-01	8.500000e-01
1.434936755517186e-03	8.347725e-01	8.500000e-01
1.447222469802891e-03	8.347725e-01	8.500000e-01
1.453936755517171e-03	8.347725e-01	8.500000e-01
1.460651041231452e-03	8.347725e-01	8.500000e-01
1.467365326945733e-03	8.347725e-01	8.500000e-01
1.474079612660014e-03	8.347725e-01	8.500000e-01
1.480793898374295e-03	8.347725e-01	8.500000e-01
1.487508184088576e-03	8.347725e-01	8.500000e-01
1.494222469802856e-03	8.347725e-01	8.500000e-01
1.500999999999999e-03	8.347725e-01	8.500000e-01
1.501099999999998e-03	8.156904e-01	6.800000e-01
1.501299999999999e-03	7.466738e-01	3.400000e-01
1.501599999999999e-03	5.899168e-01	-1.700000e-01
1.501636012305092e-03	5.653057e-01	-2.312209e-01
1.501708036915277e-03	5.067694e-01	-3.536628e-01
1.501852086135649e-03	3.786645e-01	-5.985464e-01
1.501999999999998e-03	2.373509e-01	-8.500000e-01
1.502044374159303e-03	1.931208e-01	-8.500000e-01
1.502103539705044e-03	1.374553e-01	-8.500000e-01
1.502221870796523e-03	3.685143e-02	-8.500000e-01
1.502458532979482e-03	-1.350808e-01	-8.500000e-01
1.502731150704921e-03	-2.930553e-01	-8.500000e-01
1.503096321726708e-03	-4.499980e-01	-8.500000e-01
1.503509245611464e-03	-5.737889e-01	-8.500000e-01
1.504030957702667e-03	-6.747767e-01	-8.500000e-01
1.504619879466818e-03	-7.428818e-01	-8.500000e-01
1.505357109786665e-03	-7.886432e-01	-8.500000e-01
1.506222469803215e-03	-8.145854e-01	-8.500000e-01
1.507222469803214e-03	-8.272874e-01	-8.500000e-01
1.508222469803214e-03	-8.321447e-01	-8.500000e-01
1.509222469803213e-03	-8.338499e-01	-8.500000e-01
1.510222469803212e-03	-8.344486e-01	-8.500000e-01
1.511222469803212e-03	-8.346588e-01	-8.500000e-01
1.512222469803211e-03	-8.347325e-01	-8.500000e-01
1.514222469803209e-03	-8.347676e-01	-8.500000e-01
1.522651041231775e-03	-8.347698e-01	-8.500000e-01
1.531079612660340e-03	-8.347715e-01	-8.500000e-01
1.539508184088905e-03	-8.347727e-01	-8.500000e-01
1.547936755517470e-03	-8.347734e-01	-8.500000e-01
1.556365326946035e-03	-8.347736e-01	-8.500000e-01
1.564793898374601e-03	-8.347733e-01	-8.500000e-01
1.573222469803166e-03	-8.347725e-01	-8.500000e-01
1.587222469803156e-03	-8.347725e-01	-8.500000e-01
1.601222469803145e-03	-8.347725e-01	-8.500000e-01
1.615222469803135e-03	-8.347725e-01	-8.500000e-01
1.629222469803125e-03	-8.347725e-01	-8.500000e-01
1.643222469803115e-03	-8.347725e-01	-8.500000e-01
1.657222469803104e-03	-8.347725e-01	-8.500000e-01
1.671222469803094e-03	-8.347725e-01	-8.500000e-01
1.698365326945931e-03	-8.347725e-01	-8.500000e-01
1.725508184088768e-03	-8.347725e-01	-8.500000e-01
1.752651041231606e-03	-8.347725e-01	-8.500000e-01
1.779793898374443e-03	-8.347725e-01	-8.500000e-01
1.806936755517280e-03	-8.347725e-01	-8.500000e-01
1.834079612660117e-03	-8.347725e-01	-8.500000e-01
1.861222469802954e-03	-8.347725e-01	-8.500000e-01
1.873508184088660e-03	-8.347725e-01	-8.500000e-01
1.885793898374365e-03	-8.347725e-01	-8.500000e-01
1.898079612660070e-03	-8.347725e-01	-8.500000e-01
1.910365326945775e-03	-8.347725e-01	-8.500000e-01
1.922651041231481e-03	-8.347725e-01	-8.500000e-01
1.934936755517186e-03	-8.347725e-01	-8.500000e-01
1.947222469802891e-03	-8.347725e-01	-8.500000e-01
1.953365326945744e-03	-8.347725e-01	-8.500000e-01
1.959508184088596e-03	-8.347725e-01	-8.500000e-01
1.965651041231449e-03	-8.347725e-01	-8.500000e-01
1.971793898374302e-03	-8.347725e-01	-8.500000e-01
1.977936755517154e-03	-8.347725e-01	-8.500000e-01
1.984079612660007e-03	-8.347725e-01	-8.500000e-01
1.990222469802860e-03	-8.347725e-01	-8.500000e-01
1.991222469802859e-03	-8.347725e-01	-8.500000e-01
2.000000000000000e-03	-8.347725e-01	-8.500000e-01
2.000099999999999e-03	-8.156904e-01	-6.800000e-01
2.000300000000000e-03	-7.466738e-01	-3.400000e-01
2.000600000000000e-03	-5.899168e-01	1.700000e-01
2.000636012305093e-03	-5.653057e-01	2.312209e-01
2.000708036915278e-03	-5.067694e-01	3.536628e-01
2.000852086135650e-03	-3.786645e-01	5.985464e-01
2.000999999999999e-03	-2.373509e-01	8.500000e-01
2.001044374159305e-03	-1.931208e-01	8.500000e-01
2.001103539705045e-03	-1.374553e-01	8.500000e-01
2.001221870796524e-03	-3.685143e-02	8.500000e-01
2.001458532979483e-03	1.350808e-01	8.500000e-01
2.001731150704922e-03	2.930553e-01	8.500000e-01
2.002096321726710e-03	4.499980e-01	8.500000e-01
2.002509245611465e-03	5.737889e-01	8.500000e-01
2.003030957702668e-03	6.747767e-01	8.500000e-01
2.003619879466819e-03	7.428818e-01	8.500000e-01
2.004357109786666e-03	7.886432e-01	8.500000e-01
2.005222469803216e-03	8.145854e-01	8.500000e-01
2.006222469803216e-03	8.272874e-01	8.500000e-01
2.007222469803215e-03	8.321447e-01	8.500000e-01
2.008222469803214e-03	8.338499e-01	8.500000e-01
2.009222469803213e-03	8.344486e-01	8.500000e-01
2.010222469803213e-03	8.346588e-01	8.500000e-01
2.011222469803212e-03	8.347325e-01	8.500000e-01
2.013222469803210e-03	8.347676e-01	8.500000e-01
2.021508184088919e-03	8.347698e-01	8.500000e-01
2.029793898374627e-03	8.347715e-01	8.500000e-01
2.038079612660335e-03	8.347727e-01	8.500000e-01
2.046365326946043e-03	8.347734e-01	8.500000e-01
2.054651041231751e-03	8.347736e-01	8.500000e-01
2.062936755517460e-03	8.347733e-01	8.500000e-01
2.071222469803168e-03	8.347725e-01	8.500000e-01
2.084936755517444e-03	8.347725e-01	8.500000e-01
2.098651041231719e-03	8.347725e-01	8.500000e-01
2.112365326945995e-03	8.347725e-01	8.500000e-01
2.126079612660271e-03	8.347725e-01	8.500000e-01
2.139793898374546e-03	8.347725e-01	8.500000e-01
2.153508184088822e-03	8.347725e-01	8.500000e-01
2.167222469803097e-03	8.347725e-01	8.500000e-01
2.194936755517363e-03	8.347725e-01	8.500000e-01
2.222651041231628e-03	8.347725e-01	8.500000e-01
2.250365326945893e-03	8.347725e-01	8.500000e-01
2.278079612660159e-03	8.347725e-01	8.500000e-01
2.305793898374424e-03	8.347725e-01	8.500000e-01
2.333508184088689e-03	8.347725e-01	8.500000e-01
2.361222469802955e-03	8.347725e-01	8.500000e-01
2.373508184088660e-03	8.347725e-01	8.500000e-01
2.385793898374366e-03	8.347725e-01	8.500000e-01
2.398079612660071e-03	8.347725e-01	8.500000e-01
2.410365326945776e-03	8.347725e-01	8.500000e-01
2.422651041231481e-03	8.347725e-01	8.500000e-01
2.434936755517187e-03	8.347725e-01	8.500000e-01
2.447222469802892e-03	8.347725e-01	8.500000e-01
2.453936755517173e-03	8.347725e-01	8.500000e-01
2.460651041231453e-03	8.347725e-01	8.500000e-01
2.467365326945734e-03	8.347725e-01	8.500000e-01
2.474079612660015e-03	8.347725e-01	8.500000e-01
2.480793898374296e-03	8.347725e-01	8.500000e-01
2.487508184088576e-03	8.347725e-01	8.500000e-01
2.494222469802857e-03	8.347725e-01	8.500000e-01
2.501000000000000e-03	8.347725e-01	8.500000e-01
2.501099999999999e-03	8.156904e-01	6.800000e-01
2.501300000000000e-03	7.466738e-01	3.400000e-01
2.501600000000000e-03	5.899168e-01	-1.700000e-01
2.501636012305092e-03	5.653057e-01	-2.312209e-01
2.501708036915278e-03	5.067694e-01	-3.536628e-01
2.501852086135650e-03	3.786645e-01	-5.985464e-01
2.501999999999999e-03	2.373509e-01	-8.500000e-01
2.502044374159304e-03	1.931208e-01	-8.500000e-01
2.502103539705045e-03	1.374553e-01	-8.500000e-01
2.502221870796524e-03	3.685143e-02	-8.500000e-01
2.502458532979483e-03	-1.350808e-01	-8.500000e-01
2.502731150704922e-03	-2.930553e-01	-8.500000e-01
2.503096321726709e-03	-4.499980e-01	-8.500000e-01
2.503509245611464e-03	-5.737889e-01	-8.500000e-01
2.504030957702668e-03	-6.747767e-01	-8.500000e-01
2.504619879466818e-03	-7.428818e-01	-8.500000e-01
2.505357109786666e-03	-7.886432e-01	-8.500000e-01
2.506222469803216e-03	-8.145854e-01	-8.500000e-01
2.507222469803215e-03	-8.272874e-01	-8.500000e-01
2.508222469803215e-03	-8.321447e-01	-8.500000e-01
2.509222469803214e-03	-8.338499e-01	-8.500000e-01
2.510222469803213e-03	-8.344486e-01	-8.500000e-01
2.511222469803212e-03	-8.346588e-01	-8.500000e-01
2.512222469803212e-03	-8.347325e-01	-8.500000e-01
2.514222469803210e-03	-8.347676e-01	-8.500000e-01
2.522651041231775e-03	-8.347698e-01	-8.500000e-01
2.531079612660341e-03	-8.347715e-01	-8.500000e-01
2.539508184088906e-03	-8.347727e-01	-8.500000e-01
2.547936755517471e-03	-8.347734e-01	-8.500000e-01
2.556365326946036e-03	-8.347736e-01	-8.500000e-01
2.564793898374602e-03	-8.347733e-01	-8.500000e-01
2.573222469803167e-03	-8.347725e-01	-8.500000e-01
2.587222469803157e-03	-8.347725e-01	-8.500000e-01
2.601222469803146e-03	-8.347725e-01	-8.500000e-01
2.615222469803136e-03	-8.347725e-01	-8.500000e-01
2.629222469803126e-03	-8.347725e-01	-8.500000e-01
2.643222469803115e-03	-8.347725e-01	-8.500000e-01
2.657222469803105e-03	-8.347725e-01	-8.500000e-01
2.671222469803095e-03	-8.347725e-01	-8.500000e-01
2.698365326945932e-03	-8.347725e-01	-8.500000e-01
2.725508184088769e-03	-8.347725e-01	-8.500000e-01
2.752651041231607e-03	-8.347725e-01	-8.500000e-01
2.779793898374444e-03	-8.347725e-01	-8.500000e-01
2.806936755517281e-03	-8.347725e-01	-8.500000e-01
2.834079612660118e-03	-8.347725e-01	-8.500000e-01
2.861222469802955e-03	-8.347725e-01	-8.500000e-01
2.873508184088660e-03	-8.347725e-01	-8.500000e-01
2.885793898374366e-03	-8.347725e-01	-8.500000e-01
2.898079612660071e-03	-8.347725e-01	-8.500000e-01
2.910365326945776e-03	-8.347725e-01	-8.500000e-01
2.922651041231482e-03	-8.347725e-01	-8.500000e-01
2.934936755517187e-03	-8.347725e-01	-8.500000e-01
2.947222469802892e-03	-8.347725e-01	-8.500000e-01
2.952793898374317e-03	-8.347725e-01	-8.500000e-01
2.958365326945741e-03	-8.347725e-01	-8.500000e-01
2.963936755517166e-03	-8.347725e-01	-8.500000e-01
2.969508184088590e-03	-8.347725e-01	-8.500000e-01
2.975079612660015e-03	-8.347725e-01	-8.500000e-01
2.980651041231439e-03	-8.347725e-01	-8.500000e-01
2.986222469802863e-03	-8.347725e-01	-8.500000e-01
2.987222469802863e-03	-8.347725e-01	-8.500000e-01
3.000000000000001e-03	-8.347725e-01	-8.500000e-01
3.000100000000000e-03	-8.156904e-01	-6.800000e-01
3.000300000000001e-03	-7.466738e-01	-3.400000e-01
3.000600000000001e-03	-5.899168e-01	1.700000e-01
3.000636012305094e-03	-5.653057e-01	2.312209e-01
3.000708036915279e-03	-5.067694e-01	3.536628e-01
3.000852086135651e-03	-3.786645e-01	5.985464e-01
3.001000000000000e-03	-2.373509e-01	8.500000e-01
3.001044374159306e-03	-1.931208e-01	8.500000e-01
3.001103539705046e-03	-1.374553e-01	8.500000e-01
3.001221870796525e-03	-3.685143e-02	8.500000e-01
3.001458532979484e-03	1.350808e-01	8.500000e-01
3.001731150704923e-03	2.930553e-01	8.500000e-01
3.002096321726710e-03	4.499980e-01	8.500000e-01
3.002509245611466e-03	5.737889e-01	8.500000e-01
3.003030957702669e-03	6.747767e-01	8.500000e-01
3.003619879466820e-03	7.428818e-01	8.500000e-01
3.004357109786667e-03	7.886432e-01	8.500000e-01
3.005222469803217e-03	8.145854e-01	8.500000e-01
3.006222469803217e-03	8.272874e-01	8.500000e-01
3.007222469803216e-03	8.321447e-01	8.500000e-01
3.008222469803215e-03	8.338499e-01	8.500000e-01
3.009222469803214e-03	8.344486e-01	8.500000e-01
3.010222469803214e-03	8.346588e-01	8.500000e-01
3.011222469803213e-03	8.347325e-01	8.500000e-01
3.013222469803211e-03	8.347676e-01	8.500000e-01
3.021508184088919e-03	8.347698e-01	8.500000e-01
3.029793898374628e-03	8.347715e-01	8.500000e-01
3.038079612660336e-03	8.347727e-01	8.500000e-01
