time	V(vpr)	V(n001)
0.000000000000000e+00	-6.720640e-01	-8.500000e-01
9.999999999940612e-08	-6.714467e-01	-6.800000e-01
2.999999999999531e-07	-6.690612e-01	-3.400000e-01
5.999999999999062e-07	-6.621652e-01	1.700000e-01
9.999999999992654e-07	-6.487058e-01	8.500000e-01
1.039999999999028e-06	-6.470446e-01	8.500000e-01
2.782857142854742e-06	-5.706049e-01	8.500000e-01
4.525714285710457e-06	-4.980288e-01	8.500000e-01
6.268571428566171e-06	-4.293164e-01	8.500000e-01
8.011428571421886e-06	-3.644677e-01	8.500000e-01
9.754285714277600e-06	-3.034826e-01	8.500000e-01
1.149714285713331e-05	-2.463612e-01	8.500000e-01
1.323999999998902e-05	-1.931034e-01	8.500000e-01
1.423999999998829e-05	-1.636826e-01	8.500000e-01
1.523999999998756e-05	-1.352623e-01	8.500000e-01
1.623999999998682e-05	-1.078084e-01	8.500000e-01
1.723999999998609e-05	-8.128817e-02	8.500000e-01
1.823999999998535e-05	-5.566974e-02	8.500000e-01
1.923999999998462e-05	-3.092250e-02	8.500000e-01
2.023999999998388e-05	-7.016809e-03	8.500000e-01
2.123999999998315e-05	1.607595e-02	8.500000e-01
2.223999999998241e-05	3.838341e-02	8.500000e-01
2.323999999998168e-05	5.993230e-02	8.500000e-01
2.423999999998094e-05	8.074839e-02	8.500000e-01
2.523999999998021e-05	1.008566e-01	8.500000e-01
2.623999999997947e-05	1.202810e-01	8.500000e-01
2.823999999997800e-05	1.571707e-01	8.500000e-01
3.023999999997654e-05	1.915941e-01	8.500000e-01
3.223999999997507e-05	2.237161e-01	8.500000e-01
3.523999999997286e-05	2.679178e-01	8.500000e-01
3.823999999997066e-05	3.077617e-01	8.500000e-01
4.081142857139734e-05	3.382800e-01	8.500000e-01
4.338285714282402e-05	3.666668e-01	8.500000e-01
4.595428571425071e-05	3.929221e-01	8.500000e-01
4.852571428567739e-05	4.170460e-01	8.500000e-01
5.109714285710408e-05	4.390385e-01	8.500000e-01
5.366857142853076e-05	4.588994e-01	8.500000e-01
5.623999999995744e-05	4.766290e-01	8.500000e-01
5.881142857138412e-05	4.930009e-01	8.500000e-01
6.138285714281081e-05	5.082294e-01	8.500000e-01
6.395428571423748e-05	5.223145e-01	8.500000e-01
6.652571428566416e-05	5.352561e-01	8.500000e-01
6.909714285709085e-05	5.470542e-01	8.500000e-01
7.166857142851753e-05	5.577090e-01	8.500000e-01
7.423999999994421e-05	5.672202e-01	8.500000e-01
7.681142857137089e-05	5.760032e-01	8.500000e-01
7.938285714279758e-05	5.841727e-01	8.500000e-01
8.195428571422426e-05	5.917288e-01	8.500000e-01
8.452571428565094e-05	5.986715e-01	8.500000e-01
8.709714285707763e-05	6.050008e-01	8.500000e-01
8.966857142850431e-05	6.107166e-01	8.500000e-01
9.223999999993099e-05	6.158191e-01	8.500000e-01
9.495428571421471e-05	6.207724e-01	8.500000e-01
9.766857142849843e-05	6.253650e-01	8.500000e-01
1.003828571427822e-04	6.295969e-01	8.500000e-01
1.030971428570659e-04	6.334679e-01	8.500000e-01
1.058114285713496e-04	6.369783e-01	8.500000e-01
1.085257142856333e-04	6.401279e-01	8.500000e-01
1.112399999999170e-04	6.429167e-01	8.500000e-01
1.139542857142008e-04	6.454837e-01	8.500000e-01
1.166685714284845e-04	6.478636e-01	8.500000e-01
1.193828571427682e-04	6.500566e-01	8.500000e-01
1.220971428570519e-04	6.520627e-01	8.500000e-01
1.248114285713356e-04	6.538819e-01	8.500000e-01
1.275257142856194e-04	6.555140e-01	8.500000e-01
1.302399999999031e-04	6.569593e-01	8.500000e-01
1.330971428570438e-04	6.583538e-01	8.500000e-01
1.359542857141846e-04	6.596427e-01	8.500000e-01
1.388114285713253e-04	6.608259e-01	8.500000e-01
1.416685714284661e-04	6.619035e-01	8.500000e-01
1.445257142856069e-04	6.628755e-01	8.500000e-01
1.473828571427476e-04	6.637419e-01	8.500000e-01
1.502399999998884e-04	6.645026e-01	8.500000e-01
1.533828571427432e-04	6.652641e-01	8.500000e-01
1.565257142855981e-04	6.659636e-01	8.500000e-01
1.596685714284529e-04	6.666012e-01	8.500000e-01
1.628114285713077e-04	6.671768e-01	8.500000e-01
1.659542857141626e-04	6.676904e-01	8.500000e-01
1.690971428570174e-04	6.681421e-01	8.500000e-01
1.722399999998722e-04	6.685319e-01	8.500000e-01
1.758114285712982e-04	6.689309e-01	8.500000e-01
1.793828571427241e-04	6.692942e-01	8.500000e-01
1.829542857141501e-04	6.696220e-01	8.500000e-01
1.865257142855760e-04	6.699141e-01	8.500000e-01
1.900971428570020e-04	6.701706e-01	8.500000e-01
1.936685714284279e-04	6.703915e-01	8.500000e-01
1.972399999998539e-04	6.705768e-01	8.500000e-01
2.018114285712791e-04	6.707850e-01	8.500000e-01
2.063828571427043e-04	6.709713e-01	8.500000e-01
2.109542857141295e-04	6.711356e-01	8.500000e-01
2.155257142855547e-04	6.712778e-01	8.500000e-01
2.200971428569799e-04	6.713980e-01	8.500000e-01
2.246685714284051e-04	6.714963e-01	8.500000e-01
2.292399999998303e-04	6.715724e-01	8.500000e-01
2.359542857141111e-04	6.716664e-01	8.500000e-01
2.426685714283919e-04	6.717479e-01	8.500000e-01
2.493828571426727e-04	6.718169e-01	8.500000e-01
2.560971428569535e-04	6.718733e-01	8.500000e-01
2.628114285712343e-04	6.719172e-01	8.500000e-01
2.695257142855150e-04	6.719485e-01	8.500000e-01
2.762399999997958e-04	6.719674e-01	8.500000e-01
2.905257142854996e-04	6.719973e-01	8.500000e-01
3.048114285712034e-04	6.720217e-01	8.500000e-01
3.190971428569072e-04	6.720406e-01	8.500000e-01
3.333828571426110e-04	6.720540e-01	8.500000e-01
3.476685714283148e-04	6.720618e-01	8.500000e-01
3.619542857140186e-04	6.720642e-01	8.500000e-01
3.762399999997224e-04	6.720610e-01	8.500000e-01
3.876685714282854e-04	6.720618e-01	8.500000e-01
3.990971428568484e-04	6.720625e-01	8.500000e-01
4.105257142854114e-04	6.720631e-01	8.500000e-01
4.219542857139745e-04	6.720635e-01	8.500000e-01
4.333828571425376e-04	6.720638e-01	8.500000e-01
4.448114285711006e-04	6.720639e-01	8.500000e-01
4.562399999996636e-04	6.720639e-01	8.500000e-01
4.620971428568021e-04	6.720639e-01	8.500000e-01
4.679542857139407e-04	6.720639e-01	8.500000e-01
4.738114285710793e-04	6.720639e-01	8.500000e-01
4.796685714282178e-04	6.720640e-01	8.500000e-01
4.855257142853563e-04	6.720640e-01	8.500000e-01
4.913828571424950e-04	6.720640e-01	8.500000e-01
4.972399999996335e-04	6.720640e-01	8.500000e-01
5.009999999999997e-04	6.720640e-01	8.500000e-01
5.010999999999991e-04	6.714467e-01	6.800000e-01
5.012999999999997e-04	6.690612e-01	3.400000e-01
5.015999999999996e-04	6.621652e-01	-1.700000e-01
5.019999999999990e-04	6.488691e-01	-8.500000e-01
5.037485714285689e-04	5.720832e-01	-8.500000e-01
5.054971428571389e-04	4.991895e-01	-8.500000e-01
5.072457142857088e-04	4.301880e-01	-8.500000e-01
5.089942857142789e-04	3.650786e-01	-8.500000e-01
5.107428571428488e-04	3.038614e-01	-8.500000e-01
5.124914285714188e-04	2.465363e-01	-8.500000e-01
5.142399999999887e-04	1.931034e-01	-8.500000e-01
5.152399999999880e-04	1.636826e-01	-8.500000e-01
5.162399999999873e-04	1.352623e-01	-8.500000e-01
5.172399999999865e-04	1.078084e-01	-8.500000e-01
5.182399999999858e-04	8.128817e-02	-8.500000e-01
5.192399999999851e-04	5.566974e-02	-8.500000e-01
5.202399999999843e-04	3.092250e-02	-8.500000e-01
5.212399999999836e-04	7.016810e-03	-8.500000e-01
5.222399999999829e-04	-1.607595e-02	-8.500000e-01
5.232399999999821e-04	-3.838341e-02	-8.500000e-01
5.242399999999814e-04	-5.993230e-02	-8.500000e-01
5.252399999999807e-04	-8.074839e-02	-8.500000e-01
5.262399999999799e-04	-1.008566e-01	-8.500000e-01
5.272399999999792e-04	-1.202810e-01	-8.500000e-01
5.292399999999777e-04	-1.571707e-01	-8.500000e-01
5.312399999999762e-04	-1.915941e-01	-8.500000e-01
5.332399999999748e-04	-2.237161e-01	-8.500000e-01
5.362399999999726e-04	-2.679178e-01	-8.500000e-01
5.392399999999704e-04	-3.077617e-01	-8.500000e-01
5.418114285713970e-04	-3.382800e-01	-8.500000e-01
5.443828571428238e-04	-3.666668e-01	-8.500000e-01
5.469542857142504e-04	-3.929221e-01	-8.500000e-01
5.495257142856771e-04	-4.170460e-01	-8.500000e-01
5.520971428571037e-04	-4.390385e-01	-8.500000e-01
5.546685714285305e-04	-4.588994e-01	-8.500000e-01
5.572399999999571e-04	-4.766290e-01	-8.500000e-01
5.598114285713838e-04	-4.930009e-01	-8.500000e-01
5.623828571428106e-04	-5.082294e-01	-8.500000e-01
5.649542857142372e-04	-5.223145e-01	-8.500000e-01
5.675257142856639e-04	-5.352561e-01	-8.500000e-01
5.700971428570905e-04	-5.470542e-01	-8.500000e-01
5.726685714285173e-04	-5.577090e-01	-8.500000e-01
5.752399999999439e-04	-5.672202e-01	-8.500000e-01
5.778114285713706e-04	-5.760032e-01	-8.500000e-01
5.803828571427973e-04	-5.841727e-01	-8.500000e-01
5.829542857142240e-04	-5.917288e-01	-8.500000e-01
5.855257142856506e-04	-5.986715e-01	-8.500000e-01
5.880971428570773e-04	-6.050008e-01	-8.500000e-01
5.906685714285040e-04	-6.107166e-01	-8.500000e-01
5.932399999999307e-04	-6.158191e-01	-8.500000e-01
5.959542857142144e-04	-6.207724e-01	-8.500000e-01
5.986685714284982e-04	-6.253650e-01	-8.500000e-01
6.013828571427819e-04	-6.295969e-01	-8.500000e-01
6.040971428570655e-04	-6.334679e-01	-8.500000e-01
6.068114285713493e-04	-6.369783e-01	-8.500000e-01
6.095257142856330e-04	-6.401279e-01	-8.500000e-01
6.122399999999167e-04	-6.429167e-01	-8.500000e-01
6.149542857142005e-04	-6.454837e-01	-8.500000e-01
6.176685714284842e-04	-6.478636e-01	-8.500000e-01
6.203828571427679e-04	-6.500566e-01	-8.500000e-01
6.230971428570516e-04	-6.520627e-01	-8.500000e-01
6.258114285713353e-04	-6.538819e-01	-8.500000e-01
6.285257142856190e-04	-6.555140e-01	-8.500000e-01
6.312399999999028e-04	-6.569593e-01	-8.500000e-01
6.340971428570435e-04	-6.583538e-01	-8.500000e-01
6.369542857141843e-04	-6.596427e-01	-8.500000e-01
6.398114285713250e-04	-6.608259e-01	-8.500000e-01
6.426685714284658e-04	-6.619035e-01	-8.500000e-01
6.455257142856066e-04	-6.628755e-01	-8.500000e-01
6.483828571427474e-04	-6.637419e-01	-8.500000e-01
6.512399999998881e-04	-6.645026e-01	-8.500000e-01
6.543828571427430e-04	-6.652641e-01	-8.500000e-01
6.575257142855977e-04	-6.659636e-01	-8.500000e-01
6.606685714284526e-04	-6.666012e-01	-8.500000e-01
6.638114285713074e-04	-6.671768e-01	-8.500000e-01
6.669542857141623e-04	-6.676904e-01	-8.500000e-01
6.700971428570172e-04	-6.681421e-01	-8.500000e-01
6.732399999998719e-04	-6.685319e-01	-8.500000e-01
6.768114285712978e-04	-6.689309e-01	-8.500000e-01
6.803828571427239e-04	-6.692942e-01	-8.500000e-01
6.839542857141498e-04	-6.696220e-01	-8.500000e-01
6.875257142855757e-04	-6.699141e-01	-8.500000e-01
6.910971428570017e-04	-6.701706e-01	-8.500000e-01
6.946685714284276e-04	-6.703915e-01	-8.500000e-01
6.982399999998536e-04	-6.705768e-01	-8.500000e-01
7.028114285712787e-04	-6.707850e-01	-8.500000e-01
7.073828571427040e-04	-6.709713e-01	-8.500000e-01
7.119542857141292e-04	-6.711356e-01	-8.500000e-01
7.165257142855544e-04	-6.712778e-01	-8.500000e-01
7.210971428569797e-04	-6.713980e-01	-8.500000e-01
7.256685714284049e-04	-6.714963e-01	-8.500000e-01
7.302399999998301e-04	-6.715724e-01	-8.500000e-01
7.369542857141109e-04	-6.716664e-01	-8.500000e-01
7.436685714283916e-04	-6.717479e-01	-8.500000e-01
7.503828571426724e-04	-6.718169e-01	-8.500000e-01
7.570971428569532e-04	-6.718733e-01	-8.500000e-01
7.638114285712339e-04	-6.719172e-01	-8.500000e-01
7.705257142855147e-04	-6.719485e-01	-8.500000e-01
7.772399999997955e-04	-6.719674e-01	-8.500000e-01
7.915257142854993e-04	-6.719973e-01	-8.500000e-01
8.058114285712031e-04	-6.720217e-01	-8.500000e-01
8.200971428569070e-04	-6.720406e-01	-8.500000e-01
8.343828571426107e-04	-6.720540e-01	-8.500000e-01
8.486685714283145e-04	-6.720618e-01	-8.500000e-01
8.629542857140183e-04	-6.720642e-01	-8.500000e-01
8.772399999997221e-04	-6.720610e-01	-8.500000e-01
8.886685714282851e-04	-6.720618e-01	-8.500000e-01
9.000971428568482e-04	-6.720625e-01	-8.500000e-01
9.115257142854111e-04	-6.720631e-01	-8.500000e-01
9.229542857139742e-04	-6.720635e-01	-8.500000e-01
9.343828571425373e-04	-6.720638e-01	-8.500000e-01
9.458114285711002e-04	-6.720639e-01	-8.500000e-01
9.572399999996633e-04	-6.720639e-01	-8.500000e-01
9.629542857139448e-04	-6.720639e-01	-8.500000e-01
9.686685714282264e-04	-6.720639e-01	-8.500000e-01
9.743828571425079e-04	-6.720639e-01	-8.500000e-01
9.800971428567894e-04	-6.720640e-01	-8.500000e-01
9.858114285710708e-04	-6.720640e-01	-8.500000e-01
9.915257142853525e-04	-6.720640e-01	-8.500000e-01
9.972399999996339e-04	-6.720640e-01	-8.500000e-01
9.999999999999992e-04	-6.720640e-01	-8.500000e-01
1.000099999999999e-03	-6.714467e-01	-6.800000e-01
1.000299999999999e-03	-6.690612e-01	-3.400000e-01
1.000599999999999e-03	-6.621652e-01	1.700000e-01
1.000999999999998e-03	-6.488691e-01	8.500000e-01
1.002239999999996e-03	-5.936444e-01	8.500000e-01
1.004239999999995e-03	-5.091535e-01	8.500000e-01
1.006239999999993e-03	-4.301828e-01	8.500000e-01
1.008239999999992e-03	-3.564917e-01	8.500000e-01
1.010239999999990e-03	-2.877271e-01	8.500000e-01
1.012239999999989e-03	-2.235599e-01	8.500000e-01
1.013239999999988e-03	-1.931034e-01	8.500000e-01
1.014239999999987e-03	-1.636826e-01	8.500000e-01
1.015239999999987e-03	-1.352623e-01	8.500000e-01
1.016239999999986e-03	-1.078084e-01	8.500000e-01
1.017239999999985e-03	-8.128817e-02	8.500000e-01
1.018239999999985e-03	-5.566974e-02	8.500000e-01
1.019239999999984e-03	-3.092250e-02	8.500000e-01
1.020239999999983e-03	-7.016809e-03	8.500000e-01
1.021239999999982e-03	1.607595e-02	8.500000e-01
1.022239999999982e-03	3.838341e-02	8.500000e-01
1.023239999999981e-03	5.993230e-02	8.500000e-01
1.024239999999980e-03	8.074839e-02	8.500000e-01
1.025239999999979e-03	1.008566e-01	8.500000e-01
1.026239999999979e-03	1.202810e-01	8.500000e-01
1.028239999999977e-03	1.571707e-01	8.500000e-01
1.030239999999976e-03	1.915941e-01	8.500000e-01
1.032239999999974e-03	2.237161e-01	8.500000e-01
1.035239999999972e-03	2.679178e-01	8.500000e-01
1.038239999999970e-03	3.077617e-01	8.500000e-01
1.040811428571396e-03	3.382800e-01	8.500000e-01
1.043382857142823e-03	3.666668e-01	8.500000e-01
1.045954285714250e-03	3.929221e-01	8.500000e-01
1.048525714285677e-03	4.170460e-01	8.500000e-01
1.051097142857103e-03	4.390385e-01	8.500000e-01
1.053668571428530e-03	4.588994e-01	8.500000e-01
1.056239999999957e-03	4.766290e-01	8.500000e-01
1.058811428571383e-03	4.930009e-01	8.500000e-01
1.061382857142810e-03	5.082294e-01	8.500000e-01
1.063954285714237e-03	5.223145e-01	8.500000e-01
1.066525714285663e-03	5.352561e-01	8.500000e-01
1.069097142857090e-03	5.470542e-01	8.500000e-01
1.071668571428517e-03	5.577090e-01	8.500000e-01
1.074239999999943e-03	5.672202e-01	8.500000e-01
1.076811428571370e-03	5.760032e-01	8.500000e-01
1.079382857142797e-03	5.841727e-01	8.500000e-01
1.081954285714223e-03	5.917288e-01	8.500000e-01
1.084525714285650e-03	5.986715e-01	8.500000e-01
1.087097142857077e-03	6.050008e-01	8.500000e-01
1.089668571428503e-03	6.107166e-01	8.500000e-01
1.092239999999930e-03	6.158191e-01	8.500000e-01
1.094954285714214e-03	6.207724e-01	8.500000e-01
1.097668571428498e-03	6.253650e-01	8.500000e-01
1.100382857142781e-03	6.295969e-01	8.500000e-01
1.103097142857065e-03	6.334679e-01	8.500000e-01
1.105811428571349e-03	6.369783e-01	8.500000e-01
1.108525714285633e-03	6.401279e-01	8.500000e-01
1.111239999999916e-03	6.429167e-01	8.500000e-01
1.113954285714200e-03	6.454837e-01	8.500000e-01
1.116668571428484e-03	6.478636e-01	8.500000e-01
1.119382857142767e-03	6.500566e-01	8.500000e-01
1.122097142857051e-03	6.520627e-01	8.500000e-01
1.124811428571335e-03	6.538819e-01	8.500000e-01
1.127525714285619e-03	6.555140e-01	8.500000e-01
1.130239999999902e-03	6.569593e-01	8.500000e-01
1.133097142857043e-03	6.583538e-01	8.500000e-01
1.135954285714184e-03	6.596427e-01	8.500000e-01
1.138811428571324e-03	6.608259e-01	8.500000e-01
1.141668571428465e-03	6.619035e-01	8.500000e-01
1.144525714285606e-03	6.628755e-01	8.500000e-01
1.147382857142747e-03	6.637419e-01	8.500000e-01
1.150239999999888e-03	6.645026e-01	8.500000e-01
1.153382857142742e-03	6.652641e-01	8.500000e-01
1.156525714285597e-03	6.659636e-01	8.500000e-01
1.159668571428452e-03	6.666012e-01	8.500000e-01
1.162811428571307e-03	6.671768e-01	8.500000e-01
1.165954285714162e-03	6.676904e-01	8.500000e-01
1.169097142857017e-03	6.681421e-01	8.500000e-01
1.172239999999871e-03	6.685319e-01	8.500000e-01
1.175811428571297e-03	6.689309e-01	8.500000e-01
1.179382857142723e-03	6.692942e-01	8.500000e-01
1.182954285714149e-03	6.696220e-01	8.500000e-01
1.186525714285575e-03	6.699141e-01	8.500000e-01
1.190097142857001e-03	6.701706e-01	8.500000e-01
1.193668571428427e-03	6.703915e-01	8.500000e-01
1.197239999999853e-03	6.705768e-01	8.500000e-01
1.201811428571278e-03	6.707850e-01	8.500000e-01
1.206382857142703e-03	6.709713e-01	8.500000e-01
1.210954285714129e-03	6.711356e-01	8.500000e-01
1.215525714285554e-03	6.712778e-01	8.500000e-01
1.220097142856979e-03	6.713980e-01	8.500000e-01
1.224668571428404e-03	6.714963e-01	8.500000e-01
1.229239999999829e-03	6.715724e-01	8.500000e-01
1.235954285714110e-03	6.716664e-01	8.500000e-01
1.242668571428391e-03	6.717479e-01	8.500000e-01
1.249382857142672e-03	6.718169e-01	8.500000e-01
1.256097142856953e-03	6.718733e-01	8.500000e-01
1.262811428571233e-03	6.719172e-01	8.500000e-01
1.269525714285514e-03	6.719485e-01	8.500000e-01
1.276239999999795e-03	6.719674e-01	8.500000e-01
1.290525714285499e-03	6.719973e-01	8.500000e-01
1.304811428571203e-03	6.720217e-01	8.500000e-01
1.319097142856906e-03	6.720406e-01	8.500000e-01
1.333382857142610e-03	6.720540e-01	8.500000e-01
1.347668571428314e-03	6.720618e-01	8.500000e-01
1.361954285714018e-03	6.720642e-01	8.500000e-01
1.376239999999722e-03	6.720610e-01	8.500000e-01
1.387668571428285e-03	6.720618e-01	8.500000e-01
1.399097142856848e-03	6.720625e-01	8.500000e-01
1.410525714285411e-03	6.720631e-01	8.500000e-01
1.421954285713974e-03	6.720635e-01	8.500000e-01
1.433382857142537e-03	6.720638e-01	8.500000e-01
1.444811428571100e-03	6.720639e-01	8.500000e-01
1.456239999999663e-03	6.720639e-01	8.500000e-01
1.462097142856801e-03	6.720639e-01	8.500000e-01
1.467954285713940e-03	6.720639e-01	8.500000e-01
1.473811428571078e-03	6.720639e-01	8.500000e-01
1.479668571428217e-03	6.720640e-01	8.500000e-01
1.485525714285356e-03	6.720640e-01	8.500000e-01
1.491382857142494e-03	6.720640e-01	8.500000e-01
1.497239999999633e-03	6.720640e-01	8.500000e-01
1.500999999999999e-03	6.720640e-01	8.500000e-01
1.501099999999998e-03	6.714467e-01	6.800000e-01
1.501299999999999e-03	6.690612e-01	3.400000e-01
1.501599999999999e-03	6.621652e-01	-1.700000e-01
1.501999999999998e-03	6.488691e-01	-8.500000e-01
1.503748571428568e-03	5.720832e-01	-8.500000e-01
1.505497142857138e-03	4.991895e-01	-8.500000e-01
1.507245714285708e-03	4.301880e-01	-8.500000e-01
1.508994285714278e-03	3.650786e-01	-8.500000e-01
1.510742857142848e-03	3.038614e-01	-8.500000e-01
1.512491428571418e-03	2.465363e-01	-8.500000e-01
1.514239999999988e-03	1.931034e-01	-8.500000e-01
1.515239999999987e-03	1.636826e-01	-8.500000e-01
1.516239999999986e-03	1.352623e-01	-8.500000e-01
1.517239999999986e-03	1.078084e-01	-8.500000e-01
1.518239999999985e-03	8.128817e-02	-8.500000e-01
1.519239999999984e-03	5.566974e-02	-8.500000e-01
1.520239999999983e-03	3.092250e-02	-8.500000e-01
1.521239999999983e-03	7.016810e-03	-8.500000e-01
1.522239999999982e-03	-1.607595e-02	-8.500000e-01
1.523239999999981e-03	-3.838341e-02	-8.500000e-01
1.524239999999981e-03	-5.993230e-02	-8.500000e-01
1.525239999999980e-03	-8.074839e-02	-8.500000e-01
1.526239999999979e-03	-1.008566e-01	-8.500000e-01
1.527239999999978e-03	-1.202810e-01	-8.500000e-01
1.529239999999977e-03	-1.571707e-01	-8.500000e-01
1.531239999999975e-03	-1.915941e-01	-8.500000e-01
1.533239999999974e-03	-2.237161e-01	-8.500000e-01
1.536239999999972e-03	-2.679178e-01	-8.500000e-01
1.539239999999970e-03	-3.077617e-01	-8.500000e-01
1.541811428571396e-03	-3.382800e-01	-8.500000e-01
1.544382857142823e-03	-3.666668e-01	-8.500000e-01
1.546954285714249e-03	-3.929221e-01	-8.500000e-01
1.549525714285676e-03	-4.170460e-01	-8.500000e-01
1.552097142857103e-03	-4.390385e-01	-8.500000e-01
1.554668571428530e-03	-4.588994e-01	-8.500000e-01
1.557239999999956e-03	-4.766290e-01	-8.500000e-01
