time	V(vpr)	V(n001)
0.000000000000000e+00	-4.127374e-01	-8.500000e-01
2.999999999999531e-07	-4.119464e-01	-3.400000e-01
5.999999999999062e-07	-4.101217e-01	1.700000e-01
9.999999999992654e-07	-4.065530e-01	8.500000e-01
1.039999999999028e-06	-4.061116e-01	8.500000e-01
5.211428571424387e-06	-3.574475e-01	8.500000e-01
9.382857142849747e-06	-3.113089e-01	8.500000e-01
1.355428571427511e-05	-2.676959e-01	8.500000e-01
1.772571428570047e-05	-2.266085e-01	8.500000e-01
2.189714285712582e-05	-1.880465e-01	8.500000e-01
2.606857142855119e-05	-1.520101e-01	8.500000e-01
3.023999999997654e-05	-1.184993e-01	8.500000e-01
3.252571428568914e-05	-1.008484e-01	8.500000e-01
3.481142857140175e-05	-8.373932e-02	8.500000e-01
3.709714285711436e-05	-6.717215e-02	8.500000e-01
3.938285714282697e-05	-5.114687e-02	8.500000e-01
4.166857142853957e-05	-3.566346e-02	8.500000e-01
4.395428571425218e-05	-2.072194e-02	8.500000e-01
4.623999999996478e-05	-6.322291e-03	8.500000e-01
4.723999999996405e-05	-1.548235e-04	8.500000e-01
4.823999999996331e-05	5.921986e-03	8.500000e-01
4.923999999996258e-05	1.190947e-02	8.500000e-01
5.123999999996111e-05	2.362170e-02	8.500000e-01
5.323999999995964e-05	3.499213e-02	8.500000e-01
5.623999999995744e-05	5.142865e-02	8.500000e-01
6.052571428566857e-05	7.348703e-02	8.500000e-01
6.481142857137971e-05	9.437285e-02	8.500000e-01
6.909714285709085e-05	1.140861e-01	8.500000e-01
7.338285714280199e-05	1.326268e-01	8.500000e-01
7.766857142851313e-05	1.499950e-01	8.500000e-01
8.195428571422427e-05	1.661906e-01	8.500000e-01
8.623999999993540e-05	1.812136e-01	8.500000e-01
9.238285714278803e-05	2.010566e-01	8.500000e-01
9.852571428564067e-05	2.194895e-01	8.500000e-01
1.046685714284933e-04	2.365123e-01	8.500000e-01
1.108114285713459e-04	2.521251e-01	8.500000e-01
1.169542857141986e-04	2.663278e-01	8.500000e-01
1.230971428570512e-04	2.791205e-01	8.500000e-01
1.292399999999038e-04	2.905031e-01	8.500000e-01
1.353828571427564e-04	3.010001e-01	8.500000e-01
1.415257142856091e-04	3.107511e-01	8.500000e-01
1.476685714284617e-04	3.197562e-01	8.500000e-01
1.538114285713144e-04	3.280154e-01	8.500000e-01
1.599542857141670e-04	3.355287e-01	8.500000e-01
1.660971428570196e-04	3.422960e-01	8.500000e-01
1.722399999998722e-04	3.483174e-01	8.500000e-01
1.783828571427248e-04	3.538703e-01	8.500000e-01
1.845257142855775e-04	3.590286e-01	8.500000e-01
1.906685714284301e-04	3.637923e-01	8.500000e-01
1.968114285712828e-04	3.681615e-01	8.500000e-01
2.029542857141354e-04	3.721360e-01	8.500000e-01
2.090971428569880e-04	3.757159e-01	8.500000e-01
2.152399999998406e-04	3.789013e-01	8.500000e-01
2.215257142855503e-04	3.819018e-01	8.500000e-01
2.278114285712600e-04	3.846854e-01	8.500000e-01
2.340971428569696e-04	3.872518e-01	8.500000e-01
2.403828571426793e-04	3.896013e-01	8.500000e-01
2.466685714283890e-04	3.917337e-01	8.500000e-01
2.529542857140987e-04	3.936490e-01	8.500000e-01
2.592399999998083e-04	3.953473e-01	8.500000e-01
2.656685714283750e-04	3.969440e-01	8.500000e-01
2.720971428569417e-04	3.984232e-01	8.500000e-01
2.785257142855084e-04	3.997849e-01	8.500000e-01
2.849542857140751e-04	4.010291e-01	8.500000e-01
2.913828571426418e-04	4.021557e-01	8.500000e-01
2.978114285712086e-04	4.031649e-01	8.500000e-01
3.042399999997752e-04	4.040565e-01	8.500000e-01
3.109542857140560e-04	4.049099e-01	8.500000e-01
3.176685714283368e-04	4.056985e-01	8.500000e-01
3.243828571426176e-04	4.064220e-01	8.500000e-01
3.310971428568984e-04	4.070807e-01	8.500000e-01
3.378114285711792e-04	4.076744e-01	8.500000e-01
3.445257142854599e-04	4.082032e-01	8.500000e-01
3.512399999997407e-04	4.086671e-01	8.500000e-01
3.585257142854496e-04	4.091255e-01	8.500000e-01
3.658114285711586e-04	4.095468e-01	8.500000e-01
3.730971428568675e-04	4.099311e-01	8.500000e-01
3.803828571425764e-04	4.102782e-01	8.500000e-01
3.876685714282854e-04	4.105883e-01	8.500000e-01
3.949542857139943e-04	4.108613e-01	8.500000e-01
4.022399999997033e-04	4.110973e-01	8.500000e-01
4.106685714282685e-04	4.113428e-01	8.500000e-01
4.190971428568337e-04	4.115662e-01	8.500000e-01
4.275257142853989e-04	4.117676e-01	8.500000e-01
4.359542857139642e-04	4.119469e-01	8.500000e-01
4.443828571425294e-04	4.121041e-01	8.500000e-01
4.528114285710947e-04	4.122392e-01	8.500000e-01
4.612399999996599e-04	4.123523e-01	8.500000e-01
4.665257142853703e-04	4.124191e-01	8.500000e-01
4.718114285710807e-04	4.124818e-01	8.500000e-01
4.770971428567911e-04	4.125402e-01	8.500000e-01
4.823828571425015e-04	4.125944e-01	8.500000e-01
4.876685714282120e-04	4.126443e-01	8.500000e-01
4.929542857139223e-04	4.126901e-01	8.500000e-01
4.982399999996327e-04	4.127316e-01	8.500000e-01
5.009999999999997e-04	4.127524e-01	8.500000e-01
5.012999999999997e-04	4.119613e-01	3.400000e-01
5.019999999999990e-04	4.066116e-01	-8.500000e-01
5.061771428571386e-04	3.578542e-01	-8.500000e-01
5.103542857142782e-04	3.116301e-01	-8.500000e-01
5.145314285714178e-04	2.679392e-01	-8.500000e-01
5.187085714285575e-04	2.267817e-01	-8.500000e-01
5.228857142856971e-04	1.881575e-01	-8.500000e-01
5.270628571428367e-04	1.520665e-01	-8.500000e-01
5.312399999999762e-04	1.185089e-01	-8.500000e-01
5.335257142856888e-04	1.008576e-01	-8.500000e-01
5.358114285714014e-04	8.374828e-02	-8.500000e-01
5.380971428571140e-04	6.718082e-02	-8.500000e-01
5.403828571428267e-04	5.115525e-02	-8.500000e-01
5.426685714285393e-04	3.567156e-02	-8.500000e-01
5.449542857142519e-04	2.072977e-02	-8.500000e-01
5.472399999999645e-04	6.329860e-03	-8.500000e-01
5.482399999999638e-04	1.622807e-04	-8.500000e-01
5.492399999999630e-04	-5.914639e-03	-8.500000e-01
5.502399999999623e-04	-1.190223e-02	-8.500000e-01
5.522399999999608e-04	-2.361467e-02	-8.500000e-01
5.542399999999593e-04	-3.498530e-02	-8.500000e-01
5.572399999999571e-04	-5.142213e-02	-8.500000e-01
5.615257142856683e-04	-7.348090e-02	-8.500000e-01
5.658114285713794e-04	-9.436710e-02	-8.500000e-01
5.700971428570905e-04	-1.140807e-01	-8.500000e-01
5.743828571428017e-04	-1.326218e-01	-8.500000e-01
5.786685714285129e-04	-1.499902e-01	-8.500000e-01
5.829542857142240e-04	-1.661861e-01	-8.500000e-01
5.872399999999351e-04	-1.812094e-01	-8.500000e-01
5.933828571427878e-04	-2.010527e-01	-8.500000e-01
5.995257142856404e-04	-2.194860e-01	-8.500000e-01
6.056685714284930e-04	-2.365091e-01	-8.500000e-01
6.118114285713456e-04	-2.521222e-01	-8.500000e-01
6.179542857141983e-04	-2.663252e-01	-8.500000e-01
6.240971428570509e-04	-2.791181e-01	-8.500000e-01
6.302399999999035e-04	-2.905009e-01	-8.500000e-01
6.363828571427562e-04	-3.009981e-01	-8.500000e-01
6.425257142856088e-04	-3.107493e-01	-8.500000e-01
6.486685714284614e-04	-3.197545e-01	-8.500000e-01
6.548114285713140e-04	-3.280139e-01	-8.500000e-01
6.609542857141667e-04	-3.355273e-01	-8.500000e-01
6.670971428570194e-04	-3.422947e-01	-8.500000e-01
6.732399999998719e-04	-3.483163e-01	-8.500000e-01
6.793828571427246e-04	-3.538693e-01	-8.500000e-01
6.855257142855772e-04	-3.590277e-01	-8.500000e-01
6.916685714284298e-04	-3.637915e-01	-8.500000e-01
6.978114285712824e-04	-3.681607e-01	-8.500000e-01
7.039542857141351e-04	-3.721353e-01	-8.500000e-01
7.100971428569878e-04	-3.757153e-01	-8.500000e-01
7.162399999998403e-04	-3.789006e-01	-8.500000e-01
7.225257142855500e-04	-3.819013e-01	-8.500000e-01
7.288114285712596e-04	-3.846849e-01	-8.500000e-01
7.350971428569694e-04	-3.872514e-01	-8.500000e-01
7.413828571426791e-04	-3.896008e-01	-8.500000e-01
7.476685714283887e-04	-3.917333e-01	-8.500000e-01
7.539542857140984e-04	-3.936486e-01	-8.500000e-01
7.602399999998080e-04	-3.953469e-01	-8.500000e-01
7.666685714283748e-04	-3.969437e-01	-8.500000e-01
7.730971428569414e-04	-3.984229e-01	-8.500000e-01
7.795257142855081e-04	-3.997847e-01	-8.500000e-01
7.859542857140749e-04	-4.010289e-01	-8.500000e-01
7.923828571426416e-04	-4.021555e-01	-8.500000e-01
7.988114285712082e-04	-4.031647e-01	-8.500000e-01
8.052399999997750e-04	-4.040563e-01	-8.500000e-01
8.119542857140558e-04	-4.049098e-01	-8.500000e-01
8.186685714283365e-04	-4.056983e-01	-8.500000e-01
8.253828571426173e-04	-4.064219e-01	-8.500000e-01
8.320971428568981e-04	-4.070806e-01	-8.500000e-01
8.388114285711788e-04	-4.076743e-01	-8.500000e-01
8.455257142854596e-04	-4.082031e-01	-8.500000e-01
8.522399999997404e-04	-4.086670e-01	-8.500000e-01
8.595257142854493e-04	-4.091254e-01	-8.500000e-01
8.668114285711583e-04	-4.095467e-01	-8.500000e-01
8.740971428568673e-04	-4.099310e-01	-8.500000e-01
8.813828571425762e-04	-4.102782e-01	-8.500000e-01
8.886685714282851e-04	-4.105883e-01	-8.500000e-01
8.959542857139940e-04	-4.108613e-01	-8.500000e-01
9.032399999997030e-04	-4.110972e-01	-8.500000e-01
9.116685714282682e-04	-4.113428e-01	-8.500000e-01
9.200971428568334e-04	-4.115662e-01	-8.500000e-01
9.285257142853987e-04	-4.117676e-01	-8.500000e-01
9.369542857139639e-04	-4.119469e-01	-8.500000e-01
9.453828571425292e-04	-4.121041e-01	-8.500000e-01
9.538114285710943e-04	-4.122392e-01	-8.500000e-01
9.622399999996596e-04	-4.123523e-01	-8.500000e-01
9.674914285711368e-04	-4.124187e-01	-8.500000e-01
9.727428571426140e-04	-4.124810e-01	-8.500000e-01
9.779942857140911e-04	-4.125391e-01	-8.500000e-01
9.832457142855684e-04	-4.125930e-01	-8.500000e-01
9.884971428570455e-04	-4.126428e-01	-8.500000e-01
9.937485714285228e-04	-4.126883e-01	-8.500000e-01
9.989999999999999e-04	-4.127297e-01	-8.500000e-01
9.999999999999992e-04	-4.127374e-01	-8.500000e-01
1.000299999999999e-03	-4.119464e-01	-3.400000e-01
1.000999999999998e-03	-4.065968e-01	8.500000e-01
1.002239999999996e-03	-3.917082e-01	8.500000e-01
1.006239999999993e-03	-3.457684e-01	8.500000e-01
1.010239999999990e-03	-3.021319e-01	8.500000e-01
1.014239999999987e-03	-2.607987e-01	8.500000e-01
1.018239999999985e-03	-2.217689e-01	8.500000e-01
1.022239999999982e-03	-1.850424e-01	8.500000e-01
1.026239999999979e-03	-1.506192e-01	8.500000e-01
1.030239999999976e-03	-1.184993e-01	8.500000e-01
1.032525714285688e-03	-1.008484e-01	8.500000e-01
1.034811428571401e-03	-8.373932e-02	8.500000e-01
1.037097142857114e-03	-6.717215e-02	8.500000e-01
1.039382857142826e-03	-5.114687e-02	8.500000e-01
1.041668571428539e-03	-3.566346e-02	8.500000e-01
1.043954285714251e-03	-2.072194e-02	8.500000e-01
1.046239999999964e-03	-6.322291e-03	8.500000e-01
1.047239999999963e-03	-1.548235e-04	8.500000e-01
1.048239999999962e-03	5.921986e-03	8.500000e-01
1.049239999999962e-03	1.190947e-02	8.500000e-01
1.051239999999960e-03	2.362170e-02	8.500000e-01
1.053239999999959e-03	3.499213e-02	8.500000e-01
1.056239999999957e-03	5.142865e-02	8.500000e-01
1.060525714285668e-03	7.348703e-02	8.500000e-01
1.064811428571379e-03	9.437285e-02	8.500000e-01
1.069097142857090e-03	1.140861e-01	8.500000e-01
1.073382857142801e-03	1.326268e-01	8.500000e-01
1.077668571428512e-03	1.499950e-01	8.500000e-01
1.081954285714223e-03	1.661906e-01	8.500000e-01
1.086239999999935e-03	1.812136e-01	8.500000e-01
1.092382857142787e-03	2.010566e-01	8.500000e-01
1.098525714285640e-03	2.194895e-01	8.500000e-01
1.104668571428492e-03	2.365123e-01	8.500000e-01
1.110811428571345e-03	2.521251e-01	8.500000e-01
1.116954285714198e-03	2.663278e-01	8.500000e-01
1.123097142857050e-03	2.791205e-01	8.500000e-01
1.129239999999903e-03	2.905031e-01	8.500000e-01
1.135382857142756e-03	3.010001e-01	8.500000e-01
1.141525714285608e-03	3.107511e-01	8.500000e-01
1.147668571428461e-03	3.197562e-01	8.500000e-01
1.153811428571313e-03	3.280154e-01	8.500000e-01
1.159954285714166e-03	3.355287e-01	8.500000e-01
1.166097142857019e-03	3.422960e-01	8.500000e-01
1.172239999999871e-03	3.483174e-01	8.500000e-01
1.178382857142724e-03	3.538703e-01	8.500000e-01
1.184525714285577e-03	3.590286e-01	8.500000e-01
1.190668571428429e-03	3.637923e-01	8.500000e-01
1.196811428571282e-03	3.681615e-01	8.500000e-01
1.202954285714135e-03	3.721360e-01	8.500000e-01
1.209097142856987e-03	3.757159e-01	8.500000e-01
1.215239999999840e-03	3.789013e-01	8.500000e-01
1.221525714285550e-03	3.819018e-01	8.500000e-01
1.227811428571259e-03	3.846854e-01	8.500000e-01
1.234097142856969e-03	3.872518e-01	8.500000e-01
1.240382857142678e-03	3.896013e-01	8.500000e-01
1.246668571428388e-03	3.917337e-01	8.500000e-01
1.252954285714098e-03	3.936490e-01	8.500000e-01
1.259239999999807e-03	3.953473e-01	8.500000e-01
1.265668571428374e-03	3.969440e-01	8.500000e-01
1.272097142856941e-03	3.984232e-01	8.500000e-01
1.278525714285508e-03	3.997849e-01	8.500000e-01
1.284954285714074e-03	4.010291e-01	8.500000e-01
1.291382857142641e-03	4.021557e-01	8.500000e-01
1.297811428571208e-03	4.031649e-01	8.500000e-01
1.304239999999774e-03	4.040565e-01	8.500000e-01
1.310954285714055e-03	4.049099e-01	8.500000e-01
1.317668571428336e-03	4.056985e-01	8.500000e-01
1.324382857142617e-03	4.064220e-01	8.500000e-01
1.331097142856898e-03	4.070807e-01	8.500000e-01
1.337811428571178e-03	4.076744e-01	8.500000e-01
1.344525714285459e-03	4.082032e-01	8.500000e-01
1.351239999999740e-03	4.086671e-01	8.500000e-01
1.358525714285449e-03	4.091255e-01	8.500000e-01
1.365811428571158e-03	4.095468e-01	8.500000e-01
1.373097142856867e-03	4.099311e-01	8.500000e-01
1.380382857142576e-03	4.102782e-01	8.500000e-01
1.387668571428285e-03	4.105883e-01	8.500000e-01
1.394954285713994e-03	4.108613e-01	8.500000e-01
1.402239999999702e-03	4.110973e-01	8.500000e-01
1.410668571428268e-03	4.113428e-01	8.500000e-01
1.419097142856833e-03	4.115662e-01	8.500000e-01
1.427525714285398e-03	4.117676e-01	8.500000e-01
1.435954285713963e-03	4.119469e-01	8.500000e-01
1.444382857142529e-03	4.121041e-01	8.500000e-01
1.452811428571094e-03	4.122392e-01	8.500000e-01
1.461239999999659e-03	4.123523e-01	8.500000e-01
1.466525714285370e-03	4.124191e-01	8.500000e-01
1.471811428571080e-03	4.124818e-01	8.500000e-01
1.477097142856790e-03	4.125402e-01	8.500000e-01
1.482382857142501e-03	4.125944e-01	8.500000e-01
1.487668571428211e-03	4.126443e-01	8.500000e-01
1.492954285713921e-03	4.126901e-01	8.500000e-01
1.498239999999632e-03	4.127316e-01	8.500000e-01
1.500999999999999e-03	4.127524e-01	8.500000e-01
1.501299999999999e-03	4.119613e-01	3.400000e-01
1.501999999999998e-03	4.066116e-01	-8.500000e-01
1.506177142857138e-03	3.578542e-01	-8.500000e-01
1.510354285714277e-03	3.116301e-01	-8.500000e-01
1.514531428571417e-03	2.679392e-01	-8.500000e-01
1.518708571428557e-03	2.267817e-01	-8.500000e-01
1.522885714285696e-03	1.881575e-01	-8.500000e-01
1.527062857142836e-03	1.520665e-01	-8.500000e-01
1.531239999999975e-03	1.185089e-01	-8.500000e-01
1.533525714285688e-03	1.008576e-01	-8.500000e-01
1.535811428571401e-03	8.374828e-02	-8.500000e-01
1.538097142857113e-03	6.718082e-02	-8.500000e-01
1.540382857142826e-03	5.115525e-02	-8.500000e-01
1.542668571428538e-03	3.567156e-02	-8.500000e-01
1.544954285714251e-03	2.072977e-02	-8.500000e-01
1.547239999999964e-03	6.329860e-03	-8.500000e-01
1.548239999999963e-03	1.622807e-04	-8.500000e-01
1.549239999999962e-03	-5.914639e-03	-8.500000e-01
1.550239999999961e-03	-1.190223e-02	-8.500000e-01
1.552239999999960e-03	-2.361467e-02	-8.500000e-01
1.554239999999959e-03	-3.498530e-02	-8.500000e-01
1.557239999999956e-03	-5.142213e-02	-8.500000e-01
1.561525714285668e-03	-7.348090e-02	-8.500000e-01
1.565811428571379e-03	-9.436710e-02	-8.500000e-01
1.570097142857090e-03	-1.140807e-01	-8.500000e-01
1.574382857142801e-03	-1.326218e-01	-8.500000e-01
1.578668571428512e-03	-1.499902e-01	-8.500000e-01
1.582954285714223e-03	-1.661861e-01	-8.500000e-01
1.587239999999934e-03	-1.812094e-01	-8.500000e-01
1.593382857142787e-03	-2.010527e-01	-8.500000e-01
1.599525714285640e-03	-2.194860e-01	-8.500000e-01
1.605668571428492e-03	-2.365091e-01	-8.500000e-01
1.611811428571345e-03	-2.521222e-01	-8.500000e-01
1.617954285714198e-03	-2.663252e-01	-8.500000e-01
1.624097142857050e-03	-2.791181e-01	-8.500000e-01
1.630239999999903e-03	-2.905009e-01	-8.500000e-01
1.636382857142755e-03	-3.009981e-01	-8.500000e-01
1.642525714285608e-03	-3.107493e-01	-8.500000e-01
1.648668571428461e-03	-3.197545e-01	-8.500000e-01
1.654811428571313e-03	-3.280139e-01	-8.500000e-01
1.660954285714166e-03	-3.355273e-01	-8.500000e-01
1.667097142857019e-03	-3.422947e-01	-8.500000e-01
1.673239999999871e-03	-3.483163e-01	-8.500000e-01
1.679382857142724e-03	-3.538693e-01	-8.500000e-01
1.685525714285576e-03	-3.590277e-01	-8.500000e-01
1.691668571428429e-03	-3.637915e-01	-8.500000e-01
1.697811428571282e-03	-3.681607e-01	-8.500000e-01
1.703954285714134e-03	-3.721353e-01	-8.500000e-01
1.710097142856987e-03	-3.757153e-01	-8.500000e-01
1.716239999999839e-03	-3.789006e-01	-8.500000e-01
1.722525714285549e-03	-3.819013e-01	-8.500000e-01
1.728811428571259e-03	-3.846849e-01	-8.500000e-01
1.735097142856969e-03	-3.872514e-01	-8.500000e-01
1.741382857142678e-03	-3.896008e-01	-8.500000e-01
1.747668571428388e-03	-3.917333e-01	-8.500000e-01
1.753954285714098e-03	-3.936486e-01	-8.500000e-01
1.760239999999807e-03	-3.953469e-01	-8.500000e-01
1.766668571428374e-03	-3.969437e-01	-8.500000e-01
1.773097142856941e-03	-3.984229e-01	-8.500000e-01
1.779525714285507e-03	-3.997847e-01	-8.500000e-01
1.785954285714074e-03	-4.010289e-01	-8.500000e-01
1.792382857142641e-03	-4.021555e-01	-8.500000e-01
1.798811428571207e-03	-4.031647e-01	-8.500000e-01
1.805239999999774e-03	-4.040563e-01	-8.500000e-01
1.811954285714055e-03	-4.049098e-01	-8.500000e-01
1.818668571428336e-03	-4.056983e-01	-8.500000e-01
1.825382857142616e-03	-4.064219e-01	-8.500000e-01
1.832097142856897e-03	-4.070806e-01	-8.500000e-01
1.838811428571178e-03	-4.076743e-01	-8.500000e-01
1.845525714285459e-03	-4.082031e-01	-8.500000e-01
1.852239999999740e-03	-4.086670e-01	-8.500000e-01
1.859525714285449e-03	-4.091254e-01	-8.500000e-01
1.866811428571157e-03	-4.095467e-01	-8.500000e-01
1.874097142856866e-03	-4.099310e-01	-8.500000e-01
1.881382857142575e-03	-4.102782e-01	-8.500000e-01
1.888668571428284e-03	-4.105883e-01	-8.500000e-01
1.895954285713993e-03	-4.108613e-01	-8.500000e-01
1.903239999999702e-03	-4.110972e-01	-8.500000e-01
1.911668571428267e-03	-4.113428e-01	-8.500000e-01
1.920097142856833e-03	-4.115662e-01	-8.500000e-01
1.928525714285398e-03	-4.117676e-01	-8.500000e-01
1.936954285713963e-03	-4.119469e-01	-8.500000e-01
1.945382857142528e-03	-4.121041e-01	-8.500000e-01
1.953811428571094e-03	-4.122392e-01	-8.500000e-01
1.962239999999659e-03	-4.123523e-01	-8.500000e-01
1.967491428571136e-03	-4.124187e-01	-8.500000e-01
1.972742857142614e-03	-4.124810e-01	-8.500000e-01
1.977994285714091e-03	-4.125391e-01	-8.500000e-01
1.983245714285568e-03	-4.125930e-01	-8.500000e-01
1.988497142857046e-03	-4.126428e-01	-8.500000e-01
1.993748571428523e-03	-4.126883e-01	-8.500000e-01
1.999000000000001e-03	-4.127297e-01	-8.500000e-01
2.000000000000000e-03	-4.127374e-01	-8.500000e-01
2.000300000000000e-03	-4.119464e-01	-3.400000e-01
2.000999999999999e-03	-4.065968e-01	8.500000e-01
2.002462857142855e-03	-3.890654e-01	8.500000e-01
2.003925714285711e-03	-3.718866e-01	8.500000e-01
2.005388571428567e-03	-3.550605e-01	8.500000e-01
2.006851428571423e-03	-3.385869e-01	8.500000e-01
2.008314285714279e-03	-3.224660e-01	8.500000e-01
2.009777142857134e-03	-3.066977e-01	8.500000e-01
2.011239999999991e-03	-2.912820e-01	8.500000e-01
2.012239999999990e-03	-2.809258e-01	8.500000e-01
2.015811428571416e-03	-2.453855e-01	8.500000e-01
2.019382857142842e-03	-2.114640e-01	8.500000e-01
2.022954285714268e-03	-1.791614e-01	8.500000e-01
2.026525714285693e-03	-1.484775e-01	8.500000e-01
2.030097142857120e-03	-1.194126e-01	8.500000e-01
2.033668571428545e-03	-9.196640e-02	8.500000e-01
2.037239999999971e-03	-6.613906e-02	8.500000e-01
2.040239999999969e-03	-4.530808e-02	8.500000e-01
2.042239999999968e-03	-3.192610e-02	8.500000e-01
2.044239999999966e-03	-1.893463e-02	8.500000e-01
2.045239999999966e-03	-1.258177e-02	8.500000e-01
2.046239999999965e-03	-6.322291e-03	8.500000e-01
2.047239999999964e-03	-1.548235e-04	8.500000e-01
